;$FILEVERSION=2.0
;$STARTTIME=45085.9846082407
;$COLUMNS=N,O,T,I,d,l,D
;
;   Start time: 6/8/2023 23:37:50.152.0
;   Generated by PCAN-View v5.0.5.871
;   Message   Time    Type ID     Rx/Tx
;   Number    Offset  |    [hex]  |  Data Length
;   |         [ms]    |    |      |  |  Data [hex] ...
;   |         |       |    |      |  |  |
;---+-- ------+------ +- --+----- +- +- +- +- -- -- -- -- -- -- --
      1       144.463 DT     00F1 Rx 8  55 55 40 00 00 01 C4 03 
      2      1246.397 DT     00F1 Rx 8  55 55 40 00 00 01 C4 03 
      3      2347.988 DT     00F1 Rx 8  55 55 40 00 00 01 C4 03 
      4      3450.011 DT     00F1 Rx 8  55 55 40 00 00 01 C4 03 
      5      4551.723 DT     00F1 Rx 8  55 55 40 00 00 01 C4 03 
      6      5653.437 DT     00F1 Rx 8  55 55 40 00 00 01 C4 03 
      7      6755.118 DT     00F1 Rx 8  55 55 40 00 00 01 C4 03 
      8      6755.968 DT     0010 Rx 4  43 7F 40 00 
      9      6758.327 DT     00F1 Rx 8  1D 00 05 00 00 00 00 00 
     10      7009.209 DT     00F1 Rx 8  00 90 91 00 00 FD D9 FF 
     11      7259.742 DT     00F1 Rx 8  28 86 80 FF B7 0F 03 F0 
     12      7510.241 DT     00F1 Rx 8  60 FA 1D 00 03 00 00 90 
     13      7760.713 DT     00F1 Rx 8  20 08 0D 00 80 04 BB 00 
     14      8011.305 DT     00F1 Rx 8  98 F0 CD 4F E0 0F 0D 00 
     15      8261.817 DT     00F1 Rx 8  C0 04 4D 00 E0 FF BB 00 
     16      8512.185 DT     00F1 Rx 8  FF 0F 26 0F CD 0F E0 0F 
     17      8762.607 DT     00F1 Rx 8  0D 00 C0 04 C5 FF 70 70 
     18      9013.219 DT     00F1 Rx 8  54 F0 B7 00 87 F0 C5 F2 
     19      9263.681 DT     00F1 Rx 8  74 70 96 F0 54 21 8F C1 
     20      9514.411 DT     00F1 Rx 8  00 01 A6 0F 74 FF B7 0F 
     21      9764.813 DT     00F1 Rx 8  04 F0 96 02 0D 00 C0 04 
     22     10015.465 DT     00F1 Rx 8  74 FF 54 FF 54 2F 96 08 
     23     10266.027 DT     00F1 Rx 8  91 00 40 4D 74 2F D9 44 
     24     10516.687 DT     00F1 Rx 8  00 01 80 4F CD 0F E2 0F 
     25     10767.349 DT     00F1 Rx 8  0D 00 C0 04 91 00 00 4D 
     26     11018.151 DT     00F1 Rx 8  D9 44 68 86 80 4F B7 0F 
     27     11268.743 DT     00F1 Rx 8  03 F0 CD 8F E2 0F 0D 00 
     28     11519.200 DT     00F1 Rx 8  C0 04 54 F0 B7 00 87 F0 
     29     11769.613 DT     00F1 Rx 8  54 21 96 F0 8F C1 00 01 
     30     12020.235 DT     00F1 Rx 8  A6 0F 74 FF B7 0F 04 F0 
     31     12270.757 DT     00F1 Rx 8  96 03 0D 00 C0 04 74 FF 
     32     12521.149 DT     00F1 Rx 8  91 00 00 FD 91 00 00 2D 
     33     12771.541 DT     00F1 Rx 8  D9 FF 00 80 D9 22 00 81 
     34     13022.193 DT     00F1 Rx 8  82 00 F4 AF DA 01 01 F2 
     35     13272.655 DT     00F1 Rx 8  20 F0 80 F1 86 A1 89 A2 
     36     13523.238 DT     00F1 Rx 8  84 09 02 02 3C 16 8F 62 
     37     13773.750 DT     00F1 Rx 8  20 30 D4 AF 01 F3 00 F6 
     38     14024.312 DT     00F1 Rx 8  80 F3 74 F0 37 03 64 0E 
     39     14274.944 DT     00F1 Rx 8  8F 00 21 00 37 03 70 33 
     40     14525.421 DT     00F1 Rx 8  A6 30 6E 06 DA 00 CD C0 
     41     14775.843 DT     00F1 Rx 8  E3 0F 0D 00 C0 04 C2 12 
     42     15026.495 DT     00F1 Rx 8  3F 12 EB 7F CD 80 E3 0F 
     43     15276.967 DT     00F1 Rx 8  0D 00 C0 04 1D 00 EF 02 
     44     15527.501 DT     00F1 Rx 8  00 90 91 00 00 FF D9 FF 
     45     15777.883 DT     00F1 Rx 8  1C 05 54 FF 6F 3F FF 7F 
     46     16028.495 DT     00F1 Rx 8  91 00 00 2D D9 22 0A 81 
     47     16278.977 DT     00F1 Rx 8  91 00 00 4F D9 44 10 05 
     48     16529.375 DT     00F1 Rx 8  A0 75 04 4F 24 2F FC 5E 
     49     16779.818 DT     00F1 Rx 8  DA 08 9B 0F 0A F0 74 FF 
     50     17030.441 DT     00F1 Rx 8  00 90 7B 00 80 F0 91 00 
     51     17280.963 DT     00F1 Rx 8  00 FF 59 FF 20 05 82 14 
     52     17531.657 DT     00F1 Rx 8  6D 00 14 00 DF 02 FD 7F 
     53     17781.789 DT     00F1 Rx 8  82 14 91 00 00 4D D9 44 
     54     18032.472 DT     00F1 Rx 8  A0 81 6D 00 1A 00 82 14 
     55     18282.884 DT     00F1 Rx 8  6D 00 3A 00 82 14 6D 00 
     56     18533.499 DT     00F1 Rx 8  05 00 DF 02 FD 7F 00 90 
     57     18783.921 DT     00F1 Rx 8  86 54 91 00 00 FF D9 FF 
     58     19034.604 DT     00F1 Rx 8  00 05 01 F4 00 F6 82 02 
     59     19285.057 DT     00F1 Rx 8  09 FF 1C 05 AE 84 DA 20 
     60     19535.450 DT     00F1 Rx 8  74 FF 82 12 00 90 86 54 
     61     19785.962 DT     00F1 Rx 8  91 00 00 FF D9 FF 00 05 
     62     20036.644 DT     00F1 Rx 8  01 F4 00 F6 7B 80 00 F0 
     63     20287.157 DT     00F1 Rx 8  49 F2 1C 0A 74 2F DA 00 
     64     20537.574 DT     00F1 Rx 8  54 F0 37 00 64 0C 76 0E 
     65     20788.016 DT     00F1 Rx 8  49 F5 10 0A 10 56 C2 1F 
     66     21038.668 DT     00F1 Rx 8  04 40 34 60 37 0F 68 F0 
     67     21289.170 DT     00F1 Rx 8  54 F0 37 00 64 0C 3F 0F 
     68     21539.650 DT     00F1 Rx 8  F7 FF DA 40 9B 0F 02 F0 
     69     21790.082 DT     00F1 Rx 8  74 2F 00 90 86 54 91 00 
     70     22040.814 DT     00F1 Rx 8  00 FF D9 FF 00 05 01 F4 
     71     22291.306 DT     00F1 Rx 8  00 F6 7B 00 70 F0 6C F7 
     72     22541.877 DT     00F1 Rx 8  00 90 6D 00 3E 02 6D 00 
     73     22792.279 DT     00F1 Rx 8  6C 02 91 00 00 FD 19 F8 
     74     23042.981 DT     00F1 Rx 8  1C 81 91 00 00 FD 02 85 
     75     23293.433 DT     00F1 Rx 8  91 00 00 4D 19 F9 14 81 
     76     23543.870 DT     00F1 Rx 8  02 94 D9 44 20 81 91 00 
     77     23794.342 DT     00F1 Rx 8  00 CD 6D 00 28 00 91 00 
     78     24044.955 DT     00F1 Rx 8  00 FD 59 C2 18 81 D9 FF 
     79     24295.447 DT     00F1 Rx 8  A0 81 8F 82 1F F0 28 32 
     80     24545.877 DT     00F1 Rx 8  2C F2 8F 02 1F F0 91 00 
     81     24796.299 DT     00F1 Rx 8  00 4D 02 94 2C F1 8F 82 
     82     25046.971 DT     00F1 Rx 8  1E F0 D9 44 60 81 02 85 
     83     25297.423 DT     00F1 Rx 8  34 FF 6D 00 10 00 59 C2 
     84     25547.901 DT     00F1 Rx 8  18 81 28 72 8F 82 1F F0 
     85     25798.343 DT     00F1 Rx 8  2C F6 8F 02 1F F0 2C F5 
     86     26049.005 DT     00F1 Rx 8  8F 82 1E F0 2C F4 1D FF 
     87     26299.498 DT     00F1 Rx 8  6E FF 82 FF 3C 0C 60 4F 
     88     26549.904 DT     00F1 Rx 8  8F 8F 1F 00 14 F1 16 FF 
     89     26800.356 DT     00F1 Rx 8  C6 1F 90 4F 54 FF C6 0F 
     90     27051.038 DT     00F1 Rx 8  C2 F5 C2 14 DF 05 F5 FF 
     91     27301.480 DT     00F1 Rx 8  82 F2 C6 F2 00 90 C5 FF 
     92     27552.048 DT     00F1 Rx 8  70 70 54 F0 B7 00 06 F1 
     93     27802.510 DT     00F1 Rx 8  85 F1 74 70 8F C1 00 01 
     94     28053.122 DT     00F1 Rx 8  96 F0 A6 0F 8F 2F 80 F1 
     95     28303.574 DT     00F1 Rx 8  74 FF B7 0F 04 F0 96 02 
     96     28554.038 DT     00F1 Rx 8  74 FF 00 90 6D FF ED FF 
     97     28804.441 DT     00F1 Rx 8  C5 FF 5E 40 DA 00 34 FF 
     98     29055.123 DT     00F1 Rx 8  C5 FF 58 40 DA 01 34 FF 
     99     29305.615 DT     00F1 Rx 8  1D 00 AC 01 02 4F 40 4F 
    100     29556.048 DT     00F1 Rx 8  82 08 C5 0C 3F 30 BB 80 
    101     29806.690 DT     00F1 Rx 8  00 50 02 84 6D 00 67 01 
    102     30057.482 DT     00F1 Rx 8  8F 82 01 00 74 F0 A0 72 
    103     30308.164 DT     00F1 Rx 8  54 F4 EF F4 04 00 02 F0 
    104     30558.797 DT     00F1 Rx 8  3C 02 82 00 06 14 C6 04 
    105     30809.389 DT     00F1 Rx 8  74 F4 FC 27 BB 00 02 50 
    106     31060.231 DT     00F1 Rx 8  6D 00 55 01 C2 18 64 F2 
    107     31311.004 DT     00F1 Rx 8  FD C0 E7 7F 00 90 91 00 
    108     31561.785 DT     00F1 Rx 8  00 FD D9 FF A8 81 01 F4 
    109     31812.438 DT     00F1 Rx 8  00 F6 08 3F 8F 8F 00 00 
    110     32063.260 DT     00F1 Rx 8  08 2F A6 F0 8F 80 00 00 
    111     32313.952 DT     00F1 Rx 8  08 1F A6 F0 8F 80 00 F0 
    112     32564.709 DT     00F1 Rx 8  14 F0 A6 0F 91 00 00 FD 
    113     32815.321 DT     00F1 Rx 8  59 FF 18 81 00 90 6D 00 
    114     33066.104 DT     00F1 Rx 8  98 01 6D 00 C6 01 6D 00 
    115     33316.846 DT     00F1 Rx 8  3B 02 91 00 00 CD 82 01 
    116     33567.541 DT     00F1 Rx 8  91 00 00 FD D9 CC 1C 81 
    117     33818.173 DT     00F1 Rx 8  D9 FF 00 81 54 C0 0B 01 
    118     34068.946 DT     00F1 Rx 8  30 21 08 BF 6E 0C 91 00 
    119     34319.639 DT     00F1 Rx 8  00 FD D9 FF A8 81 DF 02 
    120     34570.228 DT     00F1 Rx 8  1F 00 C2 11 24 FF 3F 01 
    121     34820.840 DT     00F1 Rx 8  FE FF 3C 19 DA 00 DF 02 
    122     35071.592 DT     00F1 Rx 8  17 00 91 00 00 DD D9 DD 
    123     35322.394 DT     00F1 Rx 8  A8 81 49 FE 0A 0A 6D FF 
    124     35573.070 DT     00F1 Rx 8  C2 FE 40 DF 49 DD 08 0A 
    125     35823.742 DT     00F1 Rx 8  40 E2 A0 74 04 20 24 F0 
    126     36074.545 DT     00F1 Rx 8  FC 4E 8B 8F 00 F0 54 C0 
    127     36325.297 DT     00F1 Rx 8  3F 0F F3 FF DA 00 54 C0 
    128     36575.995 DT     00F1 Rx 8  BF 10 1E 80 91 00 00 DD 
    129     36826.567 DT     00F1 Rx 8  D9 DD 18 81 91 00 00 ED 
    130     37077.449 DT     00F1 Rx 8  D9 EE 14 81 02 F4 6D FF 
    131     37328.331 DT     00F1 Rx 8  A4 FF 54 E0 60 0F C2 4F 
    132     37578.891 DT     00F1 Rx 8  54 D0 02 F4 74 F0 6D FF 
    133     37829.473 DT     00F1 Rx 8  9C FF 54 E0 C2 40 60 0F 
    134     38080.185 DT     00F1 Rx 8  54 D0 74 F0 C2 4F 54 C0 
    135     38331.057 DT     00F1 Rx 8  3F 0F EE FF 1D FF AB FE 
    136     38581.590 DT     00F1 Rx 8  20 20 6D 00 3E 01 6D 00 
    137     38832.003 DT     00F1 Rx 8  6C 01 91 00 00 FD D9 FF 
    138     39082.705 DT     00F1 Rx 8  00 81 08 CF EE 04 08 DF 
    139     39333.167 DT     00F1 Rx 8  DF 0F AD 00 08 BF EE 61 
    140     39583.738 DT     00F1 Rx 8  91 00 00 FD D9 FF 1C 81 
    141     39834.180 DT     00F1 Rx 8  91 00 00 CD D9 CC A0 81 
    142     40084.782 DT     00F1 Rx 8  49 C2 01 0A 89 A2 98 09 
    143     40335.314 DT     00F1 Rx 8  49 C2 02 0A 89 A2 94 09 
    144     40585.646 DT     00F1 Rx 8  49 C2 03 0A 89 A2 90 09 
    145     40836.088 DT     00F1 Rx 8  49 C2 05 0A 89 A2 8C 09 
    146     41086.790 DT     00F1 Rx 8  49 C2 06 0A 89 A2 88 09 
    147     41337.326 DT     00F1 Rx 8  49 C2 07 0A 89 A2 84 09 
    148     41587.749 DT     00F1 Rx 8  91 00 00 DD D9 DD 14 81 
    149     41838.351 DT     00F1 Rx 8  91 00 00 ED D9 EE 18 81 
    150     42089.103 DT     00F1 Rx 8  49 C2 04 0A F4 A2 3C 32 
    151     42339.761 DT     00F1 Rx 8  54 DF 60 F2 54 20 74 E0 
    152     42590.374 DT     00F1 Rx 8  34 C0 8F 80 1F 10 09 A2 
    153     42840.896 DT     00F1 Rx 8  98 09 34 21 8F 00 1F 10 
    154     43091.658 DT     00F1 Rx 8  09 A2 94 09 34 21 8F 80 
    155     43342.309 DT     00F1 Rx 8  1E 00 09 A2 90 09 34 20 
    156     43592.971 DT     00F1 Rx 8  C2 4F 74 DF 60 F2 54 20 
    157     43843.634 DT     00F1 Rx 8  74 E0 D4 A2 34 20 8F 80 
    158     44094.527 DT     00F1 Rx 8  1F 10 09 A2 8C 09 34 21 
    159     44345.239 DT     00F1 Rx 8  8F 00 1F 10 09 A2 88 09 
    160     44595.831 DT     00F1 Rx 8  34 21 8F 80 1E 00 09 A2 
    161     44846.393 DT     00F1 Rx 8  84 09 34 20 C2 4F 74 DF 
    162     45097.246 DT     00F1 Rx 8  6D FF 41 FE 54 FF C2 FF 
    163     45347.825 DT     00F1 Rx 8  74 FF 54 FF EE CE 00 90 
    164     45598.447 DT     00F1 Rx 8  DF 1F 2C 80 91 00 00 5D 
    165     45849.069 DT     00F1 Rx 8  D9 55 1C 81 54 5F 06 3F 
    166     46099.871 DT     00F1 Rx 8  74 5F 91 00 00 6D D9 66 
    167     46350.715 DT     00F1 Rx 8  14 81 54 6F 91 00 00 2D 
    168     46601.297 DT     00F1 Rx 8  60 F4 54 4F 59 2F 18 81 
    169     46851.919 DT     00F1 Rx 8  91 00 00 7D D9 77 A0 81 
    170     47102.731 DT     00F1 Rx 8  40 72 89 2F 04 04 40 74 
    171     47353.425 DT     00F1 Rx 8  8F 8F 1F 00 89 40 05 04 
    172     47604.317 DT     00F1 Rx 8  40 74 8F 0F 1F 00 89 40 
    173     47854.859 DT     00F1 Rx 8  06 04 40 74 8F 8F 1E F0 
    174     48105.501 DT     00F1 Rx 8  89 4F 07 04 14 2F 3C 0B 
    175     48355.946 DT     00F1 Rx 8  00 90 54 60 60 02 14 21 
    176     48606.418 DT     00F1 Rx 8  7E 19 C2 10 74 60 54 50 
    177     48856.820 DT     00F1 Rx 8  C2 F0 74 50 54 50 FF 10 
    178     49107.472 DT     00F1 Rx 8  F6 FF 54 5F EE 0F 08 AF 
    179     49358.043 DT     00F1 Rx 8  34 7F 40 7F DA 01 89 FF 
    180     49608.505 DT     00F1 Rx 8  01 04 40 7F DA FA 89 FF 
    181     49858.927 DT     00F1 Rx 8  02 04 DA DE 89 7F 03 04 
    182     50109.559 DT     00F1 Rx 8  3C 03 6D 00 2D 01 1D FF 
    183     50360.114 DT     00F1 Rx 8  EE FD 6D 00 82 00 91 00 
    184     50610.666 DT     00F1 Rx 8  00 FD 91 00 00 2D 19 2F 
    185     50861.298 DT     00F1 Rx 8  14 81 60 F2 54 2F 59 FF 
    186     51112.080 DT     00F1 Rx 8  18 81 6D 00 1D 01 19 FF 
    187     51362.786 DT     00F1 Rx 8  18 81 91 00 00 FD D9 FF 
    188     51613.408 DT     00F1 Rx 8  A0 81 2C F4 8F 8F 1F 00 
    189     51863.990 DT     00F1 Rx 8  28 50 8F 0F 1F 00 28 60 
    190     52114.762 DT     00F1 Rx 8  8F 8F 1E F0 2C F7 1D FF 
    191     52365.388 DT     00F1 Rx 8  CE FD 82 02 82 10 BF 15 
    192     52615.971 DT     00F1 Rx 8  11 80 9A 15 6F 04 08 00 
    193     52866.543 DT     00F1 Rx 8  82 11 0B 05 80 30 0F 31 
    194     53117.315 DT     00F1 Rx 8  10 10 A6 12 06 F4 C2 10 
    195     53368.010 DT     00F1 Rx 8  37 00 68 00 3F F0 F4 7F 
    196     53618.552 DT     00F1 Rx 8  00 90 6D 00 4E 00 91 00 
    197     53869.164 DT     00F1 Rx 8  00 FD 19 F0 14 81 91 00 
    198     54119.876 DT     00F1 Rx 8  00 2D D9 22 18 81 60 0F 
    199     54370.504 DT     00F1 Rx 8  54 F1 74 21 91 00 00 FD 
    200     54621.127 DT     00F1 Rx 8  D9 FF 00 81 82 12 08 DF 
    201     54871.669 DT     00F1 Rx 8  0F F2 10 20 08 CF 5E 14 
    202     55122.442 DT     00F1 Rx 8  A6 21 74 21 3C 07 EE 06 
    203     55373.174 DT     00F1 Rx 8  82 F1 54 2F C6 12 26 2F 
    204     55623.746 DT     00F1 Rx 8  74 2F 60 0F 54 2F 74 FF 
    205     55874.448 DT     00F1 Rx 8  6D 00 D2 00 1D FF 93 FD 
    206     56125.190 DT     00F1 Rx 8  C5 FF 70 70 54 F0 B7 00 
    207     56375.863 DT     00F1 Rx 8  06 F1 85 F1 74 70 8F C1 
    208     56626.485 DT     00F1 Rx 8  00 01 96 F0 A6 0F 8F 2F 
    209     56877.067 DT     00F1 Rx 8  80 F1 74 FF B7 0F 04 F0 
    210     57127.800 DT     00F1 Rx 8  96 03 74 FF 00 90 6D 00 
    211     57378.530 DT     00F1 Rx 8  BB 00 1D FF 7C FD 6D 00 
    212     57629.182 DT     00F1 Rx 8  28 00 91 00 00 FD 19 FF 
    213     57879.744 DT     00F1 Rx 8  14 81 60 FF 91 00 00 2D 
    214     58130.496 DT     00F1 Rx 8  19 2F 18 81 74 FF 6D 00 
    215     58381.091 DT     00F1 Rx 8  AB 00 1D FF 6C FD 91 00 
    216     58631.673 DT     00F1 Rx 8  00 FD D9 FF 00 81 08 EF 
    217     58882.335 DT     00F1 Rx 8  8F 8F 00 00 08 FF A6 F0 
    218     59133.057 DT     00F1 Rx 8  8F 80 00 F0 09 F0 50 08 
    219     59383.690 DT     00F1 Rx 8  A6 0F 09 F0 51 08 8F 8F 
    220     59634.342 DT     00F1 Rx 8  00 F0 91 00 00 FD A6 0F 
    221     59884.905 DT     00F1 Rx 8  59 FF 14 81 00 90 91 00 
    222     60135.637 DT     00F1 Rx 8  00 FD D9 FF 00 81 09 FF 
    223     60386.400 DT     00F1 Rx 8  51 08 8F 8F 00 F0 09 F0 
    224     60637.082 DT     00F1 Rx 8  50 08 A6 0F 8F 8F 00 00 
    225     60887.684 DT     00F1 Rx 8  08 FF A6 F0 08 EF 8F 80 
    226     61138.486 DT     00F1 Rx 8  00 00 91 00 00 FD A6 F0 
    227     61389.112 DT     00F1 Rx 8  59 F0 18 81 00 90 91 00 
    228     61639.674 DT     00F1 Rx 8  00 FD D9 FF 00 81 08 CF 
    229     61890.336 DT     00F1 Rx 8  8F 8F 00 00 08 DF A6 F0 
    230     62141.068 DT     00F1 Rx 8  91 00 00 FD 59 F0 1C 81 
    231     62391.914 DT     00F1 Rx 8  00 90 DA C1 91 00 80 FF 
    232     62642.386 DT     00F1 Rx 8  6C F1 BB 30 A5 F0 9B 0F 
    233     62892.878 DT     00F1 Rx 8  10 F8 6C F6 DA 50 9B 3F 
    234     63143.590 DT     00F1 Rx 8  0C F4 6C FA 7B 30 0C F4 
    235     63394.097 DT     00F1 Rx 8  6C FC BB 20 59 F0 9B 2F 
    236     63644.529 DT     00F1 Rx 8  00 F3 6C FB BB 10 32 F2 
    237     63894.951 DT     00F1 Rx 8  9B 2F 00 F3 6C FD 6D FF 
    238     64145.613 DT     00F1 Rx 8  CB FD BB B0 82 49 91 00 
    239     64396.251 DT     00F1 Rx 8  00 4D 9B 34 83 4A D9 44 
    240     64646.743 DT     00F1 Rx 8  20 81 6D FF CD FD BB 70 
    241     64897.185 DT     00F1 Rx 8  DB 41 91 00 00 4D 9B 14 
    242     65147.878 DT     00F1 Rx 8  4C 40 D9 44 60 81 6D FF 
    243     65398.379 DT     00F1 Rx 8  C3 FD 91 00 00 FD D9 FF 
    244     65648.811 DT     00F1 Rx 8  00 81 6D FF E0 FC DA 10 
    245     65899.353 DT     00F1 Rx 8  08 A0 7E 04 6D FF 75 FF 
    246     66150.015 DT     00F1 Rx 8  3C F9 DA 20 7E 0A 08 BF 
    247     66400.380 DT     00F1 Rx 8  EE 08 08 CF EE 06 08 DF 
    248     66650.833 DT     00F1 Rx 8  EE 04 6D FF FC FE 3C EE 
    249     66901.245 DT     00F1 Rx 8  DA 30 7E 04 6D FF 3A FE 
    250     67151.917 DT     00F1 Rx 8  3C E9 DA 40 7E 08 08 BF 
    251     67402.408 DT     00F1 Rx 8  EE 06 08 CF EE 04 6D FF 
    252     67652.862 DT     00F1 Rx 8  60 FF 3C E0 DA 50 7E 06 
    253     67903.294 DT     00F1 Rx 8  08 BF EE 04 6D FF 1B FF 
    254     68154.006 DT     00F1 Rx 8  3C D9 DA 60 7E 06 08 BF 
    255     68404.288 DT     00F1 Rx 8  EE 04 6D FF 24 FD 3C D2 
    256     68654.760 DT     00F1 Rx 8  DA 70 5F 0F D0 FF 6D FF 
    257     68905.372 DT     00F1 Rx 8  C4 FD 3C CC 91 00 00 FD 
    258     69156.014 DT     00F1 Rx 8  D9 FF A0 81 91 00 00 2D 
    259     69406.546 DT     00F1 Rx 8  D9 22 0A 81 A0 74 04 2F 
    260     69656.978 DT     00F1 Rx 8  8F FF 8F F1 24 FF FC 4C 
    261     69907.491 DT     00F1 Rx 8  00 90 FF FF FF FF FF FF 
    262     70158.094 DT     00F1 Rx 8  FF 20 65 6E 64 20 6F 66 
    263     70408.581 DT     00F1 Rx 8  54 43 31 37 39 37 43 41 
    264     70659.033 DT     00F1 Rx 8  4E 20 76 33 2E 30 30 35 
    265     70917.095 DT     00F1 Rx 8  10 AA AA AA AA AA AA AA 
    266     70918.235 DT     0010 Rx 8  EF 55 55 55 55 55 55 55 
    267     71017.982 DT     00F1 Rx 8  10 AA AA AA AA AA AA AA 
    268     71019.122 DT     0010 Rx 8  EF 55 55 55 55 55 55 55 
    269     71020.352 DT     00F1 Rx 8  20 00 00 00 D0 00 00 00 
    270     71021.582 DT     0010 Rx 8  DF FF FF FF 41 80 81 06 
    271     71023.502 DT     00F1 Rx 8  20 00 00 00 F0 00 06 40 
    272     71024.742 DT     0010 Rx 8  DF FF FF FF 01 91 00 00 
    273     71025.982 DT     00F1 Rx 8  20 00 00 00 F8 00 20 10 
    274     71027.222 DT     0010 Rx 8  DF FF FF FF 00 00 A5 00 
    275     71028.452 DT     00F1 Rx 8  20 00 00 00 D0 00 00 00 
    276     71029.681 DT     0010 Rx 8  DF FF FF FF 41 80 81 06 
    277     71031.171 DT     00F1 Rx 8  20 00 00 00 D0 00 00 04 
    278     71032.391 DT     0010 Rx 8  DF FF FF FF 09 80 1A 6B 
    279     71033.620 DT     00F1 Rx 8  20 00 00 00 D0 00 00 08 
    280     71034.850 DT     0010 Rx 8  DF FF FF FF 74 08 00 10 
    281     71036.060 DT     00F1 Rx 8  20 00 00 00 D0 00 00 0C 
    282     71037.270 DT     0010 Rx 8  DF FF FF FF 11 14 FD 00 
    283     71038.759 DT     00F1 Rx 8  30 00 00 00 A0 00 55 54 
    284     71039.979 DT     0010 Rx 8  CF FF FF FF 5F FF AA AB 
    285     71041.199 DT     00F1 Rx 8  40 00 00 00 AA 00 00 00 
    286     71042.459 DT     0010 Rx 8  BF FF FF FF 55 FF FF FF 
    287     71043.649 DT     00F1 Rx 8  30 00 00 00 A0 00 AA A8 
    288     71044.859 DT     0010 Rx 8  CF FF FF FF 5F FF 55 57 
    289     71046.089 DT     00F1 Rx 8  40 00 00 00 55 00 00 00 
    290     71047.339 DT     0010 Rx 8  BF FF FF FF AA FF FF FF 
    291     71048.619 DT     00F1 Rx 8  30 00 00 00 A0 00 55 3C 
    292     71049.829 DT     0010 Rx 8  CF FF FF FF 5F FF AA C3 
    293     71051.069 DT     00F1 Rx 8  40 00 00 00 00 00 00 00 
    294     71052.329 DT     0010 Rx 8  BF FF FF FF FF FF FF FF 
    295     71053.519 DT     00F1 Rx 8  30 00 00 00 A0 00 AA A8 
    296     71054.729 DT     0010 Rx 8  CF FF FF FF 5F FF 55 57 
    297     71055.929 DT     00F1 Rx 8  40 00 00 00 45 90 21 F2 
    298     71057.159 DT     0010 Rx 8  BF FF FF FF BA 6F DE 0D 
    299     71058.619 DT     00F1 Rx 8  30 00 00 00 A0 00 AA A8 
    300     71059.829 DT     0010 Rx 8  CF FF FF FF 5F FF 55 57 
    301     71061.009 DT     00F1 Rx 8  40 00 00 00 66 08 F7 96 
    302     71062.219 DT     0010 Rx 8  BF FF FF FF 99 F7 08 69 
    303     71063.409 DT     00F1 Rx 8  30 00 00 00 A0 00 55 58 
    304     71064.629 DT     0010 Rx 8  CF FF FF FF 5F FF AA A7 
    305     71065.848 DT     00F1 Rx 8  40 00 00 00 08 00 00 00 
    306     71067.108 DT     0010 Rx 8  BF FF FF FF F7 FF FF FF 
    307     71072.708 DT     00F1 Rx 8  20 00 00 00 F8 00 20 10 
    308     71073.938 DT     0010 Rx 8  DF FF FF FF 00 08 A5 00 
    309     71273.772 DT     00F1 Rx 8  20 00 00 00 F8 00 40 10 
    310     71275.012 DT     0010 Rx 8  DF FF FF FF 00 00 25 00 
    311     71276.242 DT     00F1 Rx 8  20 00 00 00 D0 00 00 00 
    312     71277.472 DT     0010 Rx 8  DF FF FF FF 41 80 81 06 
    313     71278.691 DT     00F1 Rx 8  20 00 00 00 D0 00 00 04 
    314     71279.911 DT     0010 Rx 8  DF FF FF FF 09 80 1A 6B 
    315     71281.851 DT     00F1 Rx 8  20 00 00 00 D0 00 00 08 
    316     71283.081 DT     0010 Rx 8  DF FF FF FF 74 08 00 10 
    317     71284.291 DT     00F1 Rx 8  20 00 00 00 D0 00 00 0C 
    318     71285.501 DT     0010 Rx 8  DF FF FF FF 11 14 FD 00 
    319     71286.691 DT     00F1 Rx 8  30 00 00 00 A0 20 55 54 
    320     71287.910 DT     0010 Rx 8  CF FF FF FF 5F DF AA AB 
    321     71289.129 DT     00F1 Rx 8  40 00 00 00 AA 00 00 00 
    322     71290.389 DT     0010 Rx 8  BF FF FF FF 55 FF FF FF 
    323     71291.579 DT     00F1 Rx 8  30 00 00 00 A0 20 AA A8 
    324     71292.789 DT     0010 Rx 8  CF FF FF FF 5F DF 55 57 
    325     71294.019 DT     00F1 Rx 8  40 00 00 00 55 00 00 00 
    326     71295.269 DT     0010 Rx 8  BF FF FF FF AA FF FF FF 
    327     71296.459 DT     00F1 Rx 8  30 00 00 00 A0 20 55 3C 
    328     71297.679 DT     0010 Rx 8  CF FF FF FF 5F DF AA C3 
    329     71299.329 DT     00F1 Rx 8  40 00 00 00 00 00 00 00 
    330     71300.589 DT     0010 Rx 8  BF FF FF FF FF FF FF FF 
    331     71301.779 DT     00F1 Rx 8  30 00 00 00 A0 20 AA A8 
    332     71302.989 DT     0010 Rx 8  CF FF FF FF 5F DF 55 57 
    333     71304.189 DT     00F1 Rx 8  40 00 00 00 45 90 21 F2 
    334     71305.419 DT     0010 Rx 8  BF FF FF FF BA 6F DE 0D 
    335     71306.609 DT     00F1 Rx 8  30 00 00 00 A0 20 AA A8 
    336     71307.819 DT     0010 Rx 8  CF FF FF FF 5F DF 55 57 
    337     71308.999 DT     00F1 Rx 8  40 00 00 00 66 08 F7 96 
    338     71310.209 DT     0010 Rx 8  BF FF FF FF 99 F7 08 69 
    339     71311.839 DT     00F1 Rx 8  30 00 00 00 A0 20 55 58 
    340     71313.059 DT     0010 Rx 8  CF FF FF FF 5F DF AA A7 
    341     71314.279 DT     00F1 Rx 8  40 00 00 00 08 00 00 00 
    342     71315.538 DT     0010 Rx 8  BF FF FF FF F7 FF FF FF 
    343     71320.547 DT     00F1 Rx 8  20 00 00 00 F8 00 40 10 
    344     71321.777 DT     0010 Rx 8  DF FF FF FF 00 08 25 00 
    345     71323.857 DT     00F1 Rx 8  20 00 00 00 D0 00 00 00 
    346     71325.087 DT     0010 Rx 8  DF FF FF FF 41 80 81 06 
    347     71326.307 DT     00F1 Rx 8  20 00 00 00 D0 00 00 04 
    348     71327.527 DT     0010 Rx 8  DF FF FF FF 09 80 1A 6B 
    349     71328.757 DT     00F1 Rx 8  20 00 00 00 D0 00 00 08 
    350     71329.987 DT     0010 Rx 8  DF FF FF FF 74 08 00 10 
    351     71331.196 DT     00F1 Rx 8  20 00 00 00 D0 00 00 0C 
    352     71332.406 DT     0010 Rx 8  DF FF FF FF 11 14 FD 00 
    353     71333.986 DT     00F1 Rx 8  30 00 00 00 A0 20 55 54 
    354     71335.197 DT     0010 Rx 8  CF FF FF FF 5F DF AA AB 
    355     71336.416 DT     00F1 Rx 8  40 00 00 00 AA 00 00 00 
    356     71337.676 DT     0010 Rx 8  BF FF FF FF 55 FF FF FF 
    357     71338.866 DT     00F1 Rx 8  30 00 00 00 A0 20 AA A8 
    358     71340.076 DT     0010 Rx 8  CF FF FF FF 5F DF 55 57 
    359     71341.306 DT     00F1 Rx 8  40 00 00 00 55 00 00 00 
    360     71342.556 DT     0010 Rx 8  BF FF FF FF AA FF FF FF 
    361     71343.746 DT     00F1 Rx 8  30 00 00 00 A0 20 55 3C 
    362     71344.966 DT     0010 Rx 8  CF FF FF FF 5F DF AA C3 
    363     71346.205 DT     00F1 Rx 8  40 00 00 00 00 00 00 00 
    364     71347.465 DT     0010 Rx 8  BF FF FF FF FF FF FF FF 
    365     71348.655 DT     00F1 Rx 8  30 00 00 00 A0 20 AA A8 
    366     71349.865 DT     0010 Rx 8  CF FF FF FF 5F DF 55 57 
    367     71351.065 DT     00F1 Rx 8  40 00 00 00 45 90 21 F2 
    368     71352.295 DT     0010 Rx 8  BF FF FF FF BA 6F DE 0D 
    369     71353.485 DT     00F1 Rx 8  30 00 00 00 A0 20 AA A8 
    370     71354.695 DT     0010 Rx 8  CF FF FF FF 5F DF 55 57 
    371     71356.234 DT     00F1 Rx 8  40 00 00 00 66 08 F7 96 
    372     71357.444 DT     0010 Rx 8  BF FF FF FF 99 F7 08 69 
    373     71358.634 DT     00F1 Rx 8  30 00 00 00 A0 20 55 58 
    374     71359.854 DT     0010 Rx 8  CF FF FF FF 5F DF AA A7 
    375     71361.074 DT     00F1 Rx 8  40 00 00 00 08 00 00 00 
    376     71362.334 DT     0010 Rx 8  BF FF FF FF F7 FF FF FF 
    377     71368.283 DT     00F1 Rx 8  20 00 00 00 F8 00 40 10 
    378     71369.513 DT     0010 Rx 8  DF FF FF FF 00 08 25 00 
    379     71370.753 DT     00F1 Rx 8  20 00 00 00 F8 00 20 10 
    380     71371.983 DT     0010 Rx 8  DF FF FF FF 00 08 A5 00 
    381     71373.213 DT     00F1 Rx 8  20 00 00 00 F8 00 20 20 
    382     71374.473 DT     0010 Rx 8  DF FF FF FF FF DF 00 00 
    383     71375.683 DT     00F1 Rx 8  20 00 00 00 F8 00 20 24 
    384     71376.943 DT     0010 Rx 8  DF FF FF FF 00 00 00 00 
    385     71378.523 DT     00F1 Rx 8  20 00 00 00 F8 00 20 28 
    386     71379.783 DT     0010 Rx 8  DF FF FF FF 20 80 00 00 
    387     71381.013 DT     00F1 Rx 8  20 00 00 00 D0 00 00 00 
    388     71382.243 DT     0010 Rx 8  DF FF FF FF 41 80 81 06 
    389     71383.463 DT     00F1 Rx 8  20 00 00 00 D0 00 00 04 
    390     71384.683 DT     0010 Rx 8  DF FF FF FF 09 80 1A 6B 
    391     71385.913 DT     00F1 Rx 8  20 00 00 00 D0 00 00 08 
    392     71387.143 DT     0010 Rx 8  DF FF FF FF 74 08 00 10 
    393     71388.353 DT     00F1 Rx 8  20 00 00 00 D0 00 00 0C 
    394     71389.563 DT     0010 Rx 8  DF FF FF FF 11 14 FD 00 
    395     71390.753 DT     00F1 Rx 8  30 00 00 00 A0 00 55 54 
    396     71391.973 DT     0010 Rx 8  CF FF FF FF 5F FF AA AB 
    397     71393.193 DT     00F1 Rx 8  40 00 00 00 AA 00 00 00 
    398     71394.453 DT     0010 Rx 8  BF FF FF FF 55 FF FF FF 
    399     71395.992 DT     00F1 Rx 8  30 00 00 00 A0 00 AA A8 
    400     71397.202 DT     0010 Rx 8  CF FF FF FF 5F FF 55 57 
    401     71398.432 DT     00F1 Rx 8  40 00 00 00 55 00 00 00 
    402     71399.681 DT     0010 Rx 8  BF FF FF FF AA FF FF FF 
    403     71400.871 DT     00F1 Rx 8  30 00 00 00 A0 00 55 3C 
    404     71402.081 DT     0010 Rx 8  CF FF FF FF 5F FF AA C3 
    405     71403.321 DT     00F1 Rx 8  40 00 00 00 00 00 00 00 
    406     71404.581 DT     0010 Rx 8  BF FF FF FF FF FF FF FF 
    407     71405.771 DT     00F1 Rx 8  30 00 00 00 A0 00 AA A8 
    408     71406.981 DT     0010 Rx 8  CF FF FF FF 5F FF 55 57 
    409     71408.181 DT     00F1 Rx 8  40 00 00 00 45 90 21 F2 
    410     71409.411 DT     0010 Rx 8  BF FF FF FF BA 6F DE 0D 
    411     71410.601 DT     00F1 Rx 8  30 00 00 00 A0 00 AA A8 
    412     71411.811 DT     0010 Rx 8  CF FF FF FF 5F FF 55 57 
    413     71412.991 DT     00F1 Rx 8  40 00 00 00 66 08 F7 96 
    414     71414.201 DT     0010 Rx 8  BF FF FF FF 99 F7 08 69 
    415     71415.391 DT     00F1 Rx 8  30 00 00 00 A0 00 55 58 
    416     71416.611 DT     0010 Rx 8  CF FF FF FF 5F FF AA A7 
    417     71417.841 DT     00F1 Rx 8  40 00 00 00 05 00 00 00 
    418     71419.091 DT     0010 Rx 8  BF FF FF FF FA FF FF FF 
    419     71425.011 DT     00F1 Rx 8  20 00 00 00 F8 00 20 10 
    420     71426.241 DT     0010 Rx 8  DF FF FF FF 00 08 A5 00 
    421     71427.471 DT     00F1 Rx 8  20 00 00 00 D0 00 00 00 
    422     71428.701 DT     0010 Rx 8  DF FF FF FF 41 80 81 06 
    423     71429.921 DT     00F1 Rx 8  20 00 00 00 D0 00 00 04 
    424     71431.140 DT     0010 Rx 8  DF FF FF FF 09 80 1A 6B 
    425     71432.740 DT     00F1 Rx 8  20 00 00 00 D0 00 00 08 
    426     71433.970 DT     0010 Rx 8  DF FF FF FF 74 08 00 10 
    427     71435.179 DT     00F1 Rx 8  20 00 00 00 D0 00 00 0C 
    428     71436.389 DT     0010 Rx 8  DF FF FF FF 11 14 FD 00 
    429     71437.579 DT     00F1 Rx 8  30 00 00 00 A0 00 55 54 
    430     71438.799 DT     0010 Rx 8  CF FF FF FF 5F FF AA AB 
    431     71440.019 DT     00F1 Rx 8  40 00 00 00 AA 00 00 00 
    432     71441.279 DT     0010 Rx 8  BF FF FF FF 55 FF FF FF 
    433     71442.819 DT     00F1 Rx 8  30 00 00 00 A0 00 AA A8 
    434     71444.029 DT     0010 Rx 8  CF FF FF FF 5F FF 55 57 
    435     71445.259 DT     00F1 Rx 8  40 00 00 00 55 00 00 00 
    436     71446.509 DT     0010 Rx 8  BF FF FF FF AA FF FF FF 
    437     71447.699 DT     00F1 Rx 8  30 00 00 00 A0 00 55 3C 
    438     71448.909 DT     0010 Rx 8  CF FF FF FF 5F FF AA C3 
    439     71450.148 DT     00F1 Rx 8  40 00 00 00 00 00 00 00 
    440     71451.408 DT     0010 Rx 8  BF FF FF FF FF FF FF FF 
    441     71452.598 DT     00F1 Rx 8  30 00 00 00 A0 00 AA A8 
    442     71453.808 DT     0010 Rx 8  CF FF FF FF 5F FF 55 57 
    443     71455.008 DT     00F1 Rx 8  40 00 00 00 45 90 21 F2 
    444     71456.238 DT     0010 Rx 8  BF FF FF FF BA 6F DE 0D 
    445     71457.428 DT     00F1 Rx 8  30 00 00 00 A0 00 AA A8 
    446     71458.638 DT     0010 Rx 8  CF FF FF FF 5F FF 55 57 
    447     71459.818 DT     00F1 Rx 8  40 00 00 00 66 08 F7 96 
    448     71461.028 DT     0010 Rx 8  BF FF FF FF 99 F7 08 69 
    449     71462.218 DT     00F1 Rx 8  30 00 00 00 A0 00 55 58 
    450     71463.437 DT     0010 Rx 8  CF FF FF FF 5F FF AA A7 
    451     71465.017 DT     00F1 Rx 8  40 00 00 00 05 00 00 00 
    452     71466.267 DT     0010 Rx 8  BF FF FF FF FA FF FF FF 
    453     71471.567 DT     00F1 Rx 8  20 00 00 00 F8 00 20 10 
    454     71472.797 DT     0010 Rx 8  DF FF FF FF 00 08 A5 00 
    455     71673.741 DT     00F1 Rx 8  20 00 00 00 F8 00 40 10 
    456     71674.971 DT     0010 Rx 8  DF FF FF FF 00 08 25 00 
    457     71676.191 DT     00F1 Rx 8  20 00 00 00 F8 00 40 20 
    458     71677.451 DT     0010 Rx 8  DF FF FF FF FF DF 00 00 
    459     71678.660 DT     00F1 Rx 8  20 00 00 00 F8 00 40 24 
    460     71679.920 DT     0010 Rx 8  DF FF FF FF 00 00 00 00 
    461     71681.130 DT     00F1 Rx 8  20 00 00 00 F8 00 40 28 
    462     71682.390 DT     0010 Rx 8  DF FF FF FF 00 00 00 00 
    463     71683.980 DT     00F1 Rx 8  20 00 00 00 D0 00 00 00 
    464     71685.209 DT     0010 Rx 8  DF FF FF FF 41 80 81 06 
    465     71686.429 DT     00F1 Rx 8  20 00 00 00 D0 00 00 04 
    466     71687.648 DT     0010 Rx 8  DF FF FF FF 09 80 1A 6B 
    467     71688.878 DT     00F1 Rx 8  20 00 00 00 D0 00 00 08 
    468     71690.108 DT     0010 Rx 8  DF FF FF FF 74 08 00 10 
    469     71691.317 DT     00F1 Rx 8  20 00 00 00 D0 00 00 0C 
    470     71692.527 DT     0010 Rx 8  DF FF FF FF 11 14 FD 00 
    471     71693.717 DT     00F1 Rx 8  30 00 00 00 A0 20 55 54 
    472     71694.937 DT     0010 Rx 8  CF FF FF FF 5F DF AA AB 
    473     71696.157 DT     00F1 Rx 8  40 00 00 00 AA 00 00 00 
    474     71697.417 DT     0010 Rx 8  BF FF FF FF 55 FF FF FF 
    475     71698.607 DT     00F1 Rx 8  30 00 00 00 A0 20 AA A8 
    476     71699.817 DT     0010 Rx 8  CF FF FF FF 5F DF 55 57 
    477     71701.047 DT     00F1 Rx 8  40 00 00 00 55 00 00 00 
    478     71702.297 DT     0010 Rx 8  BF FF FF FF AA FF FF FF 
    479     71703.487 DT     00F1 Rx 8  30 00 00 00 A0 20 55 3C 
    480     71704.707 DT     0010 Rx 8  CF FF FF FF 5F DF AA C3 
    481     71705.946 DT     00F1 Rx 8  40 00 00 00 00 00 00 00 
    482     71707.206 DT     0010 Rx 8  BF FF FF FF FF FF FF FF 
    483     71708.726 DT     00F1 Rx 8  30 00 00 00 A0 20 AA A8 
    484     71709.936 DT     0010 Rx 8  CF FF FF FF 5F DF 55 57 
    485     71711.136 DT     00F1 Rx 8  40 00 00 00 45 90 21 F2 
    486     71712.366 DT     0010 Rx 8  BF FF FF FF BA 6F DE 0D 
    487     71713.556 DT     00F1 Rx 8  30 00 00 00 A0 20 AA A8 
    488     71714.766 DT     0010 Rx 8  CF FF FF FF 5F DF 55 57 
    489     71715.946 DT     00F1 Rx 8  40 00 00 00 66 08 F7 96 
    490     71717.155 DT     0010 Rx 8  BF FF FF FF 99 F7 08 69 
    491     71718.345 DT     00F1 Rx 8  30 00 00 00 A0 20 55 58 
    492     71719.565 DT     0010 Rx 8  CF FF FF FF 5F DF AA A7 
    493     71720.795 DT     00F1 Rx 8  40 00 00 00 05 00 00 00 
    494     71722.045 DT     0010 Rx 8  BF FF FF FF FA FF FF FF 
    495     71726.855 DT     00F1 Rx 8  20 00 00 00 F8 00 40 10 
    496     71728.085 DT     0010 Rx 8  DF FF FF FF 00 08 25 00 
    497     71730.155 DT     00F1 Rx 8  20 00 00 00 D0 00 00 00 
    498     71731.385 DT     0010 Rx 8  DF FF FF FF 41 80 81 06 
    499     71732.605 DT     00F1 Rx 8  20 00 00 00 D0 00 00 04 
    500     71733.825 DT     0010 Rx 8  DF FF FF FF 09 80 1A 6B 
    501     71735.055 DT     00F1 Rx 8  20 00 00 00 D0 00 00 08 
    502     71736.285 DT     0010 Rx 8  DF FF FF FF 74 08 00 10 
    503     71737.495 DT     00F1 Rx 8  20 00 00 00 D0 00 00 0C 
    504     71738.705 DT     0010 Rx 8  DF FF FF FF 11 14 FD 00 
    505     71739.895 DT     00F1 Rx 8  30 00 00 00 A0 20 55 54 
    506     71741.115 DT     0010 Rx 8  CF FF FF FF 5F DF AA AB 
    507     71742.685 DT     00F1 Rx 8  40 00 00 00 AA 00 00 00 
    508     71743.945 DT     0010 Rx 8  BF FF FF FF 55 FF FF FF 
    509     71745.135 DT     00F1 Rx 8  30 00 00 00 A0 20 AA A8 
    510     71746.345 DT     0010 Rx 8  CF FF FF FF 5F DF 55 57 
    511     71747.575 DT     00F1 Rx 8  40 00 00 00 55 00 00 00 
    512     71748.824 DT     0010 Rx 8  BF FF FF FF AA FF FF FF 
    513     71750.014 DT     00F1 Rx 8  30 00 00 00 A0 20 55 3C 
    514     71751.234 DT     0010 Rx 8  CF FF FF FF 5F DF AA C3 
    515     71752.474 DT     00F1 Rx 8  40 00 00 00 00 00 00 00 
    516     71753.734 DT     0010 Rx 8  BF FF FF FF FF FF FF FF 
    517     71754.924 DT     00F1 Rx 8  30 00 00 00 A0 20 AA A8 
    518     71756.134 DT     0010 Rx 8  CF FF FF FF 5F DF 55 57 
    519     71757.334 DT     00F1 Rx 8  40 00 00 00 45 90 21 F2 
    520     71758.564 DT     0010 Rx 8  BF FF FF FF BA 6F DE 0D 
    521     71759.754 DT     00F1 Rx 8  30 00 00 00 A0 20 AA A8 
    522     71760.964 DT     0010 Rx 8  CF FF FF FF 5F DF 55 57 
    523     71762.144 DT     00F1 Rx 8  40 00 00 00 66 08 F7 96 
    524     71763.353 DT     0010 Rx 8  BF FF FF FF 99 F7 08 69 
    525     71764.543 DT     00F1 Rx 8  30 00 00 00 A0 20 55 58 
    526     71765.763 DT     0010 Rx 8  CF FF FF FF 5F DF AA A7 
    527     71767.263 DT     00F1 Rx 8  40 00 00 00 05 00 00 00 
    528     71768.513 DT     0010 Rx 8  BF FF FF FF FA FF FF FF 
    529     71773.733 DT     00F1 Rx 8  20 00 00 00 F8 00 40 10 
    530     71774.963 DT     0010 Rx 8  DF FF FF FF 00 08 25 00 
    531     71776.203 DT     00F1 Rx 8  20 00 00 00 F8 00 20 10 
    532     71777.433 DT     0010 Rx 8  DF FF FF FF 00 08 A5 00 
    533     71779.222 DT     00F1 Rx 8  20 00 00 00 F8 00 20 20 
    534     71780.481 DT     0010 Rx 8  DF FF FF FF FF DF 00 00 
    535     71781.691 DT     00F1 Rx 8  20 00 00 00 F8 00 20 24 
    536     71782.951 DT     0010 Rx 8  DF FF FF FF 00 00 00 00 
    537     71784.181 DT     00F1 Rx 8  20 00 00 00 F8 00 20 28 
    538     71785.441 DT     0010 Rx 8  DF FF FF FF 20 80 00 00 
    539     71786.651 DT     00F1 Rx 8  20 00 00 00 F8 00 40 10 
    540     71787.881 DT     0010 Rx 8  DF FF FF FF 00 08 25 00 
    541     71789.450 DT     00F1 Rx 8  20 00 00 00 F8 00 40 20 
    542     71790.710 DT     0010 Rx 8  DF FF FF FF FF DF 00 00 
    543     71791.920 DT     00F1 Rx 8  20 00 00 00 F8 00 40 24 
    544     71793.180 DT     0010 Rx 8  DF FF FF FF 00 00 00 00 
    545     71794.390 DT     00F1 Rx 8  20 00 00 00 F8 00 40 28 
    546     71795.650 DT     0010 Rx 8  DF FF FF FF 00 00 00 00 
    547     71796.839 DT     00F1 Rx 8  30 00 00 00 A0 00 55 54 
    548     71798.059 DT     0010 Rx 8  CF FF FF FF 5F FF AA AB 
    549     71799.639 DT     00F1 Rx 8  40 00 00 00 F0 00 00 00 
    550     71800.899 DT     0010 Rx 8  BF FF FF FF 0F FF FF FF 
    551     71814.028 DT     00F1 Rx 8  30 00 00 80 80 00 00 00 
