;$FILEVERSION=2.0
;$STARTTIME=45067.0955884954
;$COLUMNS=N,O,T,I,d,l,D
;
;   Start time: 5/21/2023 02:17:38.846.0
;   Generated by PCAN-View v5.0.5.871
;   Message   Time    Type ID     Rx/Tx
;   Number    Offset  |    [hex]  |  Data Length
;   |         [ms]    |    |      |  |  Data [hex] ...
;   |         |       |    |      |  |  |
;---+-- ------+------ +- --+----- +- +- +- +- -- -- -- -- -- -- --
      1      7888.955 ER          Rx    02 01 1B 00 00
      2      7890.193 ER          Rx    02 01 1B 00 00
      3      7891.431 ER          Rx    02 01 1B 00 00
      4      7892.669 ER          Rx    02 01 1B 00 00
      5      7893.906 ER          Rx    02 01 1B 00 00
      6      7895.144 ER          Rx    02 01 1B 00 00
      7      7896.382 ER          Rx    02 01 1B 00 00
      8      7897.620 ER          Rx    02 01 1B 00 00
      9      7898.857 ER          Rx    02 01 1B 00 00
     10      7900.095 ER          Rx    02 01 1B 00 00
     11      7901.333 ER          Rx    02 01 1B 00 00
     12      7902.571 ER          Rx    02 01 1B 00 00
     13      7903.809 ER          Rx    02 01 1B 00 00
     14      7905.046 ER          Rx    02 01 1B 00 00
     15      7906.284 ER          Rx    02 01 1B 00 00
     16      7907.581 DT     00F1 Rx 8  55 55 40 00 20 03 C4 03 
     17      7908.423 DT     0010 Rx 4  48 26 40 00 
     18      7909.691 DT     00F1 Rx 8  1D 00 00 09 60 80 00 00 
     19      7910.858 DT     00F1 Rx 8  6D 00 8E 07 91 00 00 4D 
     20      7912.015 DT     00F1 Rx 8  D9 44 00 81 BB B0 82 49 
     21      7913.163 DT     00F1 Rx 8  9B 34 83 4A 40 44 02 44 
     22      7914.330 DT     00F1 Rx 8  6D 00 74 03 91 00 00 4D 
     23      7915.477 DT     00F1 Rx 8  D9 44 40 81 BB 70 DB 41 
     24      7916.625 DT     00F1 Rx 8  9B 14 4C 40 40 44 02 44 
     25      7917.792 DT     00F1 Rx 8  6D 00 68 03 1D 00 96 00 
     26      7918.979 DT     00F1 Rx 8  6D 00 38 07 91 00 00 FD 
     27      7920.146 DT     00F1 Rx 8  D9 FF 20 82 14 FF 3B 00 
     28      7921.363 DT     00F1 Rx 8  01 00 7E 06 00 00 6D 00 
     29      7922.531 DT     00F1 Rx 8  11 07 1D 00 87 00 91 00 
     30      7923.718 DT     00F1 Rx 8  00 FD D9 FF 20 82 14 FF 
     31      7924.915 DT     00F1 Rx 8  3B 10 01 00 7E 0B 91 00 
     32      7926.092 DT     00F1 Rx 8  00 FD D9 FF 21 82 14 FF 
     33      7927.259 DT     00F1 Rx 8  F6 F5 00 00 6D 00 8C 06 
     34      7928.457 DT     00F1 Rx 8  3C 74 91 00 00 FD D9 FF 
     35      7929.644 DT     00F1 Rx 8  20 82 14 FF 3B 00 02 00 
     36      7930.852 DT     00F1 Rx 8  5F 0F 18 80 91 00 00 FD 
     37      7932.009 DT     00F1 Rx 8  D9 FF 21 82 14 FF EE 11 
     38      7933.186 DT     00F1 Rx 8  91 00 00 FD D9 FF 22 82 
     39      7934.394 DT     00F1 Rx 8  14 FF F6 FB 91 00 00 FD 
     40      7935.551 DT     00F1 Rx 8  D9 FF 23 82 14 FF F6 F5 
     41      7936.729 DT     00F1 Rx 8  00 00 6D 00 EB 05 3C 55 
     42      7937.936 DT     00F1 Rx 8  91 00 00 FD D9 FF 20 82 
     43      7939.134 DT     00F1 Rx 8  14 FF 3B 00 03 00 7E 05 
     44      7940.311 DT     00F1 Rx 8  00 00 6D 00 B5 04 3C 49 
     45      7941.508 DT     00F1 Rx 8  91 00 00 FD D9 FF 20 82 
     46      7942.716 DT     00F1 Rx 8  14 FF 3B 00 04 00 5F 0F 
     47      7943.923 DT     00F1 Rx 8  12 80 91 00 00 FD D9 FF 
     48      7945.100 DT     00F1 Rx 8  21 82 14 FF F6 FB 91 00 
     49      7946.277 DT     00F1 Rx 8  00 FD D9 FF 22 82 14 FF 
     50      7947.454 DT     00F1 Rx 8  F6 F5 00 00 6D 00 C0 06 
     51      7948.672 DT     00F1 Rx 8  3C 30 91 00 00 FD D9 FF 
     52      7949.859 DT     00F1 Rx 8  20 82 14 FF 3B 00 05 00 
     53      7951.056 DT     00F1 Rx 8  7E 0B 91 00 00 FD D9 FF 
     54      7952.263 DT     00F1 Rx 8  21 82 14 FF F6 F5 00 00 
     55      7953.440 DT     00F1 Rx 8  6D 00 EA 05 3C 1E 91 00 
     56      7954.626 DT     00F1 Rx 8  00 FD D9 FF 20 82 14 FF 
     57      7955.824 DT     00F1 Rx 8  3B 00 06 00 7E 0B 91 00 
     58      7957.001 DT     00F1 Rx 8  00 FD D9 FF 21 82 14 FF 
     59      7958.188 DT     00F1 Rx 8  F6 F5 00 00 6D 00 3C 03 
     60      7959.395 DT     00F1 Rx 8  3C 0C 91 00 00 FD D9 FF 
     61      7960.593 DT     00F1 Rx 8  20 82 14 FF 3B 00 07 00 
     62      7961.800 DT     00F1 Rx 8  7E 04 00 00 6D 00 02 04 
     63      7962.988 DT     00F1 Rx 8  DA 01 1D FF 6B FF FF FF 
     64      7964.205 DT     00F1 Rx 8  00 00 00 00 02 44 DA 00 
     65      7965.382 DT     00F1 Rx 8  02 FF BB 00 60 04 9B 00 
     66      7966.579 DT     00F1 Rx 8  00 0F 60 0F 8F 54 20 00 
     67      7967.757 DT     00F1 Rx 8  01 F0 00 F6 48 70 6F 30 
     68      7968.944 DT     00F1 Rx 8  04 00 DA 01 02 FF 02 F2 
     69      7970.141 DT     00F1 Rx 8  00 90 FF FF 02 44 DA 00 
     70      7971.319 DT     00F1 Rx 8  02 FF BB 00 60 04 9B 00 
     71      7972.517 DT     00F1 Rx 8  00 0F 60 0F 8F 54 20 00 
     72      7973.715 DT     00F1 Rx 8  01 F0 00 F6 48 71 6F 81 
     73      7974.893 DT     00F1 Rx 8  0D 80 BB 00 60 F4 9B 0F 
     74      7976.101 DT     00F1 Rx 8  00 FF 60 FF 01 F0 00 F6 
     75      7977.268 DT     00F1 Rx 8  DA 20 6C F7 DA 01 02 FF 
     76      7978.456 DT     00F1 Rx 8  02 F2 00 90 02 44 40 44 
     77      7979.633 DT     00F1 Rx 8  BB 00 60 F4 9B 0F 00 FF 
     78      7980.830 DT     00F1 Rx 8  8F 54 20 00 42 0F 60 FF 
     79      7981.998 DT     00F1 Rx 8  54 FF 8F 8F 1E F0 16 0F 
     80      7983.175 DT     00F1 Rx 8  B4 4F DA 00 3C 12 10 4F 
     81      7984.372 DT     00F1 Rx 8  BB 00 60 04 9B 00 00 0F 
     82      7985.560 DT     00F1 Rx 8  60 02 8F 54 20 00 01 20 
     83      7986.737 DT     00F1 Rx 8  00 26 10 22 09 20 50 08 
     84      7987.894 DT     00F1 Rx 8  28 C0 C2 1F 37 0F 68 F0 
     85      7989.102 DT     00F1 Rx 8  02 FF 09 40 C0 08 3F 0F 
     86      7990.268 DT     00F1 Rx 8  EC FF 8F 40 20 F0 B4 4F 
     87      7991.446 DT     00F1 Rx 8  BB 00 60 F4 9B 0F 00 FF 
     88      7992.634 DT     00F1 Rx 8  60 FF 8F 54 20 F0 10 FF 
     89      7993.792 DT     00F1 Rx 8  48 7F 2E B5 09 4F C0 08 
     90      7994.959 DT     00F1 Rx 8  96 08 B4 4F BB 00 60 F4 
     91      7996.136 DT     00F1 Rx 8  9B 0F 00 FF 60 FF 8F 54 
     92      7997.344 DT     00F1 Rx 8  20 F0 10 FF 48 60 EF D0 
     93      7998.531 DT     00F1 Rx 8  23 00 BB 00 60 04 9B 00 
     94      7999.728 DT     00F1 Rx 8  00 0F 60 0F 10 FF 48 60 
     95      8000.895 DT     00F1 Rx 8  BB F0 FF 1F 9B F1 FF 11 
     96      8002.062 DT     00F1 Rx 8  26 10 89 40 02 09 BB 00 
     97      8003.270 DT     00F1 Rx 8  60 04 9B 00 00 0F 60 0F 
     98      8004.457 DT     00F1 Rx 8  10 FF 48 3F BB F0 FF 0F 
     99      8005.644 DT     00F1 Rx 8  9B F0 FF 01 26 0F 89 4F 
    100      8006.831 DT     00F1 Rx 8  06 09 09 4F C0 08 96 04 
    101      8007.988 DT     00F1 Rx 8  B4 4F 3C 1D BB 00 60 F4 
    102      8009.166 DT     00F1 Rx 8  9B 0F 00 FF 60 FF 8F 54 
    103      8010.363 DT     00F1 Rx 8  20 F0 10 FF 48 60 8F E0 
    104      8011.561 DT     00F1 Rx 8  1E 00 3B F0 7F 10 26 10 
    105      8012.768 DT     00F1 Rx 8  89 40 02 09 BB 00 60 04 
    106      8013.956 DT     00F1 Rx 8  9B 00 00 0F 60 0F 10 FF 
    107      8015.123 DT     00F1 Rx 8  48 3F 8F EF 1E F0 26 1F 
    108      8016.300 DT     00F1 Rx 8  89 4F 06 09 BB 00 60 F4 
    109      8017.478 DT     00F1 Rx 8  9B 0F 00 FF 60 FF 8F 54 
    110      8018.675 DT     00F1 Rx 8  20 F0 10 FF 48 2F 8F 0F 
    111      8019.853 DT     00F1 Rx 8  1F F0 BB F0 FF 0F 26 0F 
    112      8021.020 DT     00F1 Rx 8  AC 4A 00 90 85 FF 20 00 
    113      8022.207 DT     00F1 Rx 8  BB E0 FF 0F 9B F0 FF 0F 
    114      8023.394 DT     00F1 Rx 8  0F 0F 80 40 02 44 6D 00 
    115      8024.611 DT     00F1 Rx 8  3D 07 85 FF 20 00 37 0F 
    116      8025.798 DT     00F1 Rx 8  61 F0 EE FC BB 00 00 F4 
    117      8026.975 DT     00F1 Rx 8  9B 0F 00 FF 60 FF DA 08 
    118      8028.132 DT     00F1 Rx 8  74 FF BB 00 00 F4 9B 0F 
    119      8029.329 DT     00F1 Rx 8  00 FF 60 FF 54 FF 6F 1F 
    120      8030.497 DT     00F1 Rx 8  FA FF BB C0 00 F4 9B 0F 
    121      8031.704 DT     00F1 Rx 8  00 FF 60 FF 3B F0 3F F4 
    122      8032.871 DT     00F1 Rx 8  74 FF 85 FF 20 00 8F 1F 
    123      8034.049 DT     00F1 Rx 8  40 41 02 44 6D 00 1A 07 
    124      8035.216 DT     00F1 Rx 8  BB 40 1C F4 9B 0F 00 FF 
    125      8036.393 DT     00F1 Rx 8  60 FF 54 FF 6F 8F FA FF 
    126      8037.570 DT     00F1 Rx 8  BB 00 20 F4 9B 0F 00 FF 
    127      8038.757 DT     00F1 Rx 8  60 FF DA 41 74 FF BB 80 
    128      8039.955 DT     00F1 Rx 8  20 F4 9B 0F 00 FF 60 FF 
    129      8041.122 DT     00F1 Rx 8  DA 00 74 FF BB 40 21 04 
    130      8042.319 DT     00F1 Rx 8  9B 00 00 0F 60 0F 7B 00 
    131      8043.506 DT     00F1 Rx 8  06 00 74 F0 BB C0 20 04 
    132      8044.704 DT     00F1 Rx 8  9B 00 00 0F 60 0F 74 FF 
    133      8045.911 DT     00F1 Rx 8  85 FF 20 00 BB E0 FF 0F 
    134      8047.078 DT     00F1 Rx 8  9B F0 FF 0F 0F 0F 80 40 
    135      8048.255 DT     00F1 Rx 8  02 44 6D 00 EB 06 85 FF 
    136      8049.453 DT     00F1 Rx 8  20 00 37 0F 61 F0 EE FC 
    137      8050.610 DT     00F1 Rx 8  C5 FF 00 91 85 FF 00 91 
    138      8051.797 DT     00F1 Rx 8  7B 00 10 00 A6 0F 74 FF 
    139      8052.975 DT     00F1 Rx 8  85 FF 20 00 8F 1F 40 41 
    140      8054.142 DT     00F1 Rx 8  02 44 6D 00 D7 06 C5 FF 
    141      8055.329 DT     00F1 Rx 8  18 81 85 FF 18 81 BB F0 
    142      8056.526 DT     00F1 Rx 8  F0 0F 9B F0 FF 0F 26 0F 
    143      8057.724 DT     00F1 Rx 8  96 20 74 FF 85 FF 20 00 
    144      8058.911 DT     00F1 Rx 8  BB E0 FF 0F 9B F0 FF 0F 
    145      8060.098 DT     00F1 Rx 8  0F 0F 80 40 02 44 6D 00 
    146      8061.285 DT     00F1 Rx 8  C1 06 85 FF 20 00 37 0F 
    147      8062.472 DT     00F1 Rx 8  61 F0 EE FC C5 FF 00 91 
    148      8063.690 DT     00F1 Rx 8  85 FF 00 91 7B 00 10 00 
    149      8064.877 DT     00F1 Rx 8  A6 0F 74 FF 85 FF 20 00 
    150      8066.044 DT     00F1 Rx 8  8F 1F 40 41 02 44 6D 00 
    151      8067.221 DT     00F1 Rx 8  AD 06 C5 FF 18 81 85 FF 
    152      8068.409 DT     00F1 Rx 8  18 81 BB F0 FF 00 9B F0 
    153      8069.596 DT     00F1 Rx 8  FF 0F 26 0F BB 00 00 09 
    154      8070.773 DT     00F1 Rx 8  A6 0F 74 FF BB 00 21 F4 
    155      8071.950 DT     00F1 Rx 8  9B 0F 00 FF 60 FF 91 00 
    156      8073.109 DT     00F1 Rx 8  00 2D 19 2F 0C 82 74 FF 
    157      8074.276 DT     00F1 Rx 8  BB 80 21 F4 9B 0F 00 FF 
    158      8075.473 DT     00F1 Rx 8  60 FF DA 00 74 FF BB 00 
    159      8076.651 DT     00F1 Rx 8  30 F4 9B 0F 00 FF 60 FF 
    160      8077.918 DT     00F1 Rx 8  DA 41 74 FF BB 00 40 04 
    161      8079.105 DT     00F1 Rx 8  9B 00 00 0F 60 0F 74 FF 
    162      8080.292 DT     00F1 Rx 8  BB 00 50 04 9B 00 00 0F 
    163      8081.459 DT     00F1 Rx 8  60 0F 74 FF BB 40 1C F4 
    164      8082.636 DT     00F1 Rx 8  9B 0F 00 FF 60 FF DA 02 
    165      8083.784 DT     00F1 Rx 8  9B 0F 10 F0 74 FF BB 40 
    166      8084.971 DT     00F1 Rx 8  1C F4 9B 0F 00 FF 60 FF 
    167      8086.159 DT     00F1 Rx 8  54 FF 6F 8F FA FF BB 40 
    168      8087.346 DT     00F1 Rx 8  1C F4 9B 0F 00 FF 60 FF 
    169      8088.513 DT     00F1 Rx 8  DA 02 9B 1F 10 F0 74 FF 
    170      8089.680 DT     00F1 Rx 8  BB 40 1C F4 9B 0F 00 FF 
    171      8090.857 DT     00F1 Rx 8  60 FF 54 FF 6F 8F FA FF 
    172      8092.024 DT     00F1 Rx 8  BB C0 61 F4 9B 0F 00 FF 
    173      8093.202 DT     00F1 Rx 8  60 FF 7B 00 08 F0 74 FF 
    174      8094.380 DT     00F1 Rx 8  BB 00 60 F4 9B 0F 00 FF 
    175      8095.567 DT     00F1 Rx 8  60 FF 82 01 74 F1 BB 40 
    176      8096.744 DT     00F1 Rx 8  60 F4 9B 0F 00 FF 60 FF 
    177      8097.891 DT     00F1 Rx 8  74 F1 BB C0 60 F4 9B 0F 
    178      8099.119 DT     00F1 Rx 8  00 FF 60 FF BB F0 FF FF 
    179      8100.306 DT     00F1 Rx 8  9B FF FF F1 74 FF BB 80 
    180      8101.483 DT     00F1 Rx 8  61 F4 9B 0F 00 FF 60 FF 
    181      8102.650 DT     00F1 Rx 8  7B 40 3C FC 74 FF BB 00 
    182      8103.827 DT     00F1 Rx 8  61 F4 9B 0F 00 FF 60 FF 
    183      8104.965 DT     00F1 Rx 8  74 F1 BB 40 61 F4 9B 0F 
    184      8106.152 DT     00F1 Rx 8  00 FF 60 FF 74 F1 BB 80 
    185      8107.330 DT     00F1 Rx 8  60 F4 9B 0F 00 FF 60 FF 
    186      8108.477 DT     00F1 Rx 8  74 F1 BB C0 61 F4 9B 0F 
    187      8109.664 DT     00F1 Rx 8  00 FF 60 FF 7B 00 02 F0 
    188      8110.821 DT     00F1 Rx 8  74 FF BB C0 63 04 9B 00 
    189      8112.029 DT     00F1 Rx 8  00 0F 60 0F 7B 80 E8 00 
    190      8113.196 DT     00F1 Rx 8  74 F0 BB 00 62 04 9B 00 
    191      8114.414 DT     00F1 Rx 8  00 0F 60 0F 7B 00 80 00 
    192      8115.571 DT     00F1 Rx 8  74 F0 BB 40 62 04 9B 00 
    193      8116.748 DT     00F1 Rx 8  00 0F 60 0F 74 F1 BB C0 
    194      8117.945 DT     00F1 Rx 8  62 04 9B 00 00 0F 60 0F 
    195      8119.133 DT     00F1 Rx 8  BB F0 FF 0F 9B F0 FF 01 
    196      8120.291 DT     00F1 Rx 8  74 F0 BB 80 63 04 9B 00 
    197      8121.488 DT     00F1 Rx 8  00 0F 60 0F 7B 00 04 0C 
    198      8122.655 DT     00F1 Rx 8  74 F0 BB 00 63 04 9B 00 
    199      8123.833 DT     00F1 Rx 8  00 0F 60 0F 74 F1 BB 40 
    200      8125.031 DT     00F1 Rx 8  63 04 9B 00 00 0F 60 0F 
    201      8126.178 DT     00F1 Rx 8  74 F1 BB 80 62 04 9B 00 
    202      8127.395 DT     00F1 Rx 8  00 0F 60 0F 3B 00 10 00 
    203      8128.563 DT     00F1 Rx 8  74 F0 BB C0 63 04 9B 00 
    204      8129.749 DT     00F1 Rx 8  00 0F 60 0F 74 FF BB 00 
    205      8130.946 DT     00F1 Rx 8  20 F4 9B 0F 00 FF 60 FF 
    206      8132.123 DT     00F1 Rx 8  BB 00 20 F4 9B 0F 00 FF 
    207      8133.310 DT     00F1 Rx 8  60 F2 54 2F BB E0 FB 0F 
    208      8134.478 DT     00F1 Rx 8  9B F0 FF 0F 26 0F 74 FF 
    209      8135.695 DT     00F1 Rx 8  00 90 FF FF 02 44 40 44 
    210      8136.872 DT     00F1 Rx 8  BB 00 60 F4 9B 0F 00 FF 
    211      8138.060 DT     00F1 Rx 8  60 FF 8F 54 20 F0 10 FF 
    212      8139.258 DT     00F1 Rx 8  7B 80 00 F0 6C F7 DA 00 
    213      8140.455 DT     00F1 Rx 8  3C 14 BB 00 60 04 9B 00 
    214      8141.663 DT     00F1 Rx 8  00 0F 60 0F 8F 54 20 00 
    215      8142.850 DT     00F1 Rx 8  01 F0 00 F6 10 FF 14 40 
    216      8144.027 DT     00F1 Rx 8  89 F0 10 08 40 44 B0 14 
    217      8145.165 DT     00F1 Rx 8  40 44 C2 1F 37 0F 68 F0 
    218      8146.342 DT     00F1 Rx 8  02 FF BB 00 60 04 9B 00 
    219      8147.519 DT     00F1 Rx 8  00 0F 8F 54 20 10 42 10 
    220      8148.696 DT     00F1 Rx 8  60 0F 54 F0 8F 80 1E 00 
    221      8149.894 DT     00F1 Rx 8  8F F0 00 01 3F 0F DF FF 
    222      8151.071 DT     00F1 Rx 8  BB 00 60 F4 9B 0F 00 FF 
    223      8152.248 DT     00F1 Rx 8  60 FF 01 F1 00 F6 DA 40 
    224      8153.396 DT     00F1 Rx 8  9B 0F 02 F0 6C F7 00 90 
    225      8154.564 DT     00F1 Rx 8  02 44 BB 00 60 F4 9B 0F 
    226      8155.781 DT     00F1 Rx 8  00 FF 60 FF 8F 54 20 F0 
    227      8156.959 DT     00F1 Rx 8  10 FF DA 08 6C F7 00 90 
    228      8158.117 DT     00F1 Rx 8  02 44 BB 00 60 F4 9B 0F 
    229      8159.334 DT     00F1 Rx 8  00 FF 60 FF 8F 54 20 F0 
    230      8160.502 DT     00F1 Rx 8  10 FF 7B 00 02 F0 6C F7 
    231      8161.690 DT     00F1 Rx 8  00 90 FF FF 02 44 BB 00 
    232      8162.868 DT     00F1 Rx 8  60 F4 9B 0F 00 FF 60 FF 
    233      8164.045 DT     00F1 Rx 8  8F 54 20 F0 10 FF 7B 00 
    234      8165.211 DT     00F1 Rx 8  70 F0 6C F7 00 90 FF FF 
    235      8166.389 DT     00F1 Rx 8  40 44 02 44 02 55 BB F0 
    236      8167.616 DT     00F1 Rx 8  FF FF 9B FF FF FF 02 FF 
    237      8168.813 DT     00F1 Rx 8  3C 0C 8F 8F 1F 00 16 FF 
    238      8169.981 DT     00F1 Rx 8  60 4F 14 F1 C6 1F 06 2F 
    239      8171.158 DT     00F1 Rx 8  10 4F 54 FF C6 0F C2 14 
    240      8172.315 DT     00F1 Rx 8  02 50 C2 F5 02 55 DF 00 
    241      8173.492 DT     00F1 Rx 8  F2 FF BB F0 FF 0F 9B F0 
    242      8174.669 DT     00F1 Rx 8  FF 0F C6 0F 02 F2 00 90 
    243      8175.827 DT     00F1 Rx 8  40 4C 02 48 82 09 3C 3C 
    244      8176.984 DT     00F1 Rx 8  02 9F 06 2F 10 CF 3B 80 
    245      8178.161 DT     00F1 Rx 8  00 50 02 94 02 55 6D 00 
    246      8179.359 DT     00F1 Rx 8  39 00 02 22 8F 82 01 F0 
    247      8180.556 DT     00F1 Rx 8  74 FF DA 00 3C 1A 02 90 
    248      8181.733 DT     00F1 Rx 8  06 20 01 C0 00 F6 54 F0 
    249      8182.911 DT     00F1 Rx 8  7B 00 00 18 26 10 76 03 
    250      8184.108 DT     00F1 Rx 8  02 80 3C 02 82 00 02 91 
    251      8185.285 DT     00F1 Rx 8  06 21 01 C1 00 F6 02 91 
    252      8186.453 DT     00F1 Rx 8  06 21 01 C1 00 26 54 21 
    253      8187.610 DT     00F1 Rx 8  06 11 C6 10 74 F0 C2 1F 
    254      8188.808 DT     00F1 Rx 8  02 FF BF 8F E6 FF 02 9F 
    255      8189.975 DT     00F1 Rx 8  06 2F 10 CF 02 9F 06 2F 
    256      8191.133 DT     00F1 Rx 8  10 C2 54 24 3B 00 02 50 
    257      8192.320 DT     00F1 Rx 8  02 44 02 55 6D 00 0A 00 
    258      8193.457 DT     00F1 Rx 8  02 22 74 F2 C2 19 DA FF 
    259      8194.665 DT     00F1 Rx 8  7F 9F C4 FF 00 00 00 90 
    260      8195.832 DT     00F1 Rx 8  02 44 02 55 82 02 DA 01 
    261      8197.069 DT     00F1 Rx 8  3C 0F 6F 04 08 00 82 10 
    262      8198.227 DT     00F1 Rx 8  02 51 A2 F1 0F 10 10 00 
    263      8199.384 DT     00F1 Rx 8  A6 02 02 44 06 F4 02 44 
    264      8200.551 DT     00F1 Rx 8  C2 1F 37 0F 68 F0 02 FF 
    265      8201.728 DT     00F1 Rx 8  8B 15 00 00 3F 0F EF 7F 
    266      8202.905 DT     00F1 Rx 8  02 22 00 90 6D 00 CA 06 
    267      8204.083 DT     00F1 Rx 8  6D 00 E2 07 91 00 00 FD 
    268      8205.261 DT     00F1 Rx 8  D9 FF 00 82 91 00 00 4D 
    269      8206.448 DT     00F1 Rx 8  D9 44 00 81 91 00 00 2D 
    270      8207.636 DT     00F1 Rx 8  19 24 04 82 91 00 00 2D 
    271      8208.803 DT     00F1 Rx 8  19 25 08 82 40 44 02 44 
    272      8209.970 DT     00F1 Rx 8  02 55 6D FF 6B FF 02 22 
    273      8211.137 DT     00F1 Rx 8  74 F2 91 00 00 FD D9 FF 
    274      8212.324 DT     00F1 Rx 8  2F 82 91 00 00 2D 19 2F 
    275      8213.532 DT     00F1 Rx 8  00 82 34 FF 91 00 00 FD 
    276      8214.699 DT     00F1 Rx 8  D9 FF 2E 82 19 2F 00 82 
    277      8215.876 DT     00F1 Rx 8  06 8F 34 FF 91 00 00 FD 
    278      8217.044 DT     00F1 Rx 8  D9 FF 2D 82 19 2F 00 82 
    279      8218.211 DT     00F1 Rx 8  8F 0F 1F F0 34 FF 91 00 
    280      8219.398 DT     00F1 Rx 8  00 FD D9 FF 2C 82 19 2F 
    281      8220.596 DT     00F1 Rx 8  00 82 8F 8F 1E F0 34 FF 
    282      8221.773 DT     00F1 Rx 8  40 2F D9 FF 00 82 91 00 
    283      8222.940 DT     00F1 Rx 8  00 4D D9 44 40 81 91 00 
    284      8224.117 DT     00F1 Rx 8  00 2D 19 24 04 82 91 00 
    285      8225.284 DT     00F1 Rx 8  00 2D 19 25 08 82 40 44 
    286      8226.452 DT     00F1 Rx 8  02 44 02 55 6D FF 32 FF 
    287      8227.619 DT     00F1 Rx 8  02 22 74 F2 91 00 00 FD 
    288      8228.786 DT     00F1 Rx 8  D9 FF 33 82 91 00 00 2D 
    289      8229.953 DT     00F1 Rx 8  19 2F 00 82 34 FF 91 00 
    290      8231.130 DT     00F1 Rx 8  00 FD D9 FF 32 82 19 2F 
    291      8232.318 DT     00F1 Rx 8  00 82 06 8F 34 FF 91 00 
    292      8233.505 DT     00F1 Rx 8  00 FD D9 FF 31 82 19 2F 
    293      8234.692 DT     00F1 Rx 8  00 82 8F 0F 1F F0 34 FF 
    294      8235.869 DT     00F1 Rx 8  91 00 00 FD D9 FF 30 82 
    295      8237.026 DT     00F1 Rx 8  19 2F 00 82 8F 8F 1E F0 
    296      8238.214 DT     00F1 Rx 8  34 FF 6D 00 15 03 00 90 
    297      8239.412 DT     00F1 Rx 8  02 44 91 00 00 FD D9 FF 
    298      8240.589 DT     00F1 Rx 8  00 82 9A 34 91 00 00 2D 
    299      8241.746 DT     00F1 Rx 8  D9 22 80 81 10 22 14 2F 
    300      8242.943 DT     00F1 Rx 8  74 FF 91 00 00 FD D9 FF 
    301      8244.131 DT     00F1 Rx 8  00 82 91 00 00 4D 19 4F 
    302      8245.328 DT     00F1 Rx 8  00 82 8F 8F 00 F0 74 FF 
    303      8246.505 DT     00F1 Rx 8  40 4F D9 FF 00 82 19 4F 
    304      8247.703 DT     00F1 Rx 8  00 82 8B 24 00 00 91 00 
    305      8248.880 DT     00F1 Rx 8  00 2D D9 22 80 81 01 20 
    306      8250.058 DT     00F1 Rx 8  00 26 14 20 A6 0F 74 FF 
    307      8251.235 DT     00F1 Rx 8  40 4F D9 FF 00 82 19 4F 
    308      8252.443 DT     00F1 Rx 8  00 82 8F 8F 00 F0 74 FF 
    309      8253.620 DT     00F1 Rx 8  40 4F D9 FF 00 82 19 4F 
    310      8254.807 DT     00F1 Rx 8  00 82 8B 14 00 00 91 00 
    311      8255.984 DT     00F1 Rx 8  00 2D D9 22 80 81 01 20 
    312      8257.161 DT     00F1 Rx 8  00 26 14 20 A6 0F 74 FF 
    313      8258.339 DT     00F1 Rx 8  40 4F D9 FF 00 82 19 4F 
    314      8259.537 DT     00F1 Rx 8  00 82 8F 8F 00 F0 74 FF 
    315      8260.714 DT     00F1 Rx 8  40 4F D9 FF 00 82 19 4F 
    316      8261.892 DT     00F1 Rx 8  00 82 91 00 00 2D D9 22 
    317      8263.080 DT     00F1 Rx 8  80 81 01 24 00 26 14 20 
    318      8264.267 DT     00F1 Rx 8  A6 0F 74 FF 00 90 FF FF 
    319      8265.455 DT     00F1 Rx 8  6D 00 F8 05 6D 00 10 07 
    320      8266.642 DT     00F1 Rx 8  6D 00 30 07 91 00 00 FD 
    321      8267.789 DT     00F1 Rx 8  D9 FF 21 82 14 FF 6E 16 
    322      8268.986 DT     00F1 Rx 8  DA 00 3C 0D 91 00 00 FD 
    323      8270.172 DT     00F1 Rx 8  D9 FF 80 81 10 FF 91 00 
    324      8271.330 DT     00F1 Rx 8  00 2D D9 22 21 82 14 20 
    325      8272.517 DT     00F1 Rx 8  34 F0 C2 1F 91 00 00 FD 
    326      8273.724 DT     00F1 Rx 8  19 F0 08 82 3F 0F F0 FF 
    327      8274.911 DT     00F1 Rx 8  3C 21 DA 00 3C 19 6D 00 
    328      8276.098 DT     00F1 Rx 8  81 02 82 00 3C 11 12 01 
    329      8277.296 DT     00F1 Rx 8  91 00 00 FD D9 FF 80 81 
    330      8278.483 DT     00F1 Rx 8  01 F1 00 F6 91 00 00 2D 
    331      8279.660 DT     00F1 Rx 8  D9 22 20 82 01 20 00 26 
    332      8280.818 DT     00F1 Rx 8  14 21 34 F1 C2 10 BF 80 
    333      8281.965 DT     00F1 Rx 8  F0 FF 8B 8F 00 F0 91 00 
    334      8283.152 DT     00F1 Rx 8  00 FD 19 F0 08 82 3F 0F 
    335      8284.339 DT     00F1 Rx 8  E4 FF DA 00 3C 1E 02 F4 
    336      8285.517 DT     00F1 Rx 8  6D FF 64 FF 91 00 00 FD 
    337      8286.724 DT     00F1 Rx 8  19 F0 04 82 60 0F 91 00 
    338      8287.902 DT     00F1 Rx 8  00 2D 19 20 00 82 74 F0 
    339      8289.049 DT     00F1 Rx 8  C2 4F 02 F4 6D FF 56 FF 
    340      8290.247 DT     00F1 Rx 8  91 00 00 FD 19 F0 04 82 
    341      8291.434 DT     00F1 Rx 8  C2 40 60 0F 91 00 00 2D 
    342      8292.602 DT     00F1 Rx 8  19 20 00 82 74 F0 C2 4F 
    343      8293.800 DT     00F1 Rx 8  91 00 00 FD 19 F0 08 82 
    344      8295.018 DT     00F1 Rx 8  3F 0F DF FF 00 00 6D 00 
    345      8296.195 DT     00F1 Rx 8  53 02 00 90 DA 00 02 FF 
    346      8297.352 DT     00F1 Rx 8  6D 00 8C 05 6D 00 A4 06 
    347      8298.529 DT     00F1 Rx 8  91 00 00 FD D9 FF 22 82 
    348      8299.726 DT     00F1 Rx 8  14 FF F6 F9 91 00 00 FD 
    349      8300.894 DT     00F1 Rx 8  D9 FF 23 82 14 FF F6 F3 
    350      8302.092 DT     00F1 Rx 8  1D 00 12 01 91 00 00 FD 
    351      8303.279 DT     00F1 Rx 8  D9 FF 21 82 14 FF DF 0F 
    352      8304.456 DT     00F1 Rx 8  7C 80 3C 72 91 00 00 FD 
    353      8305.633 DT     00F1 Rx 8  D9 FF 00 82 91 00 00 4D 
    354      8306.811 DT     00F1 Rx 8  19 4F 04 82 60 F2 54 2F 
    355      8308.008 DT     00F1 Rx 8  74 FF 91 00 00 FD D9 FF 
    356      8309.186 DT     00F1 Rx 8  2C 82 91 00 00 5D 19 5F 
    357      8310.384 DT     00F1 Rx 8  00 82 34 FF 91 00 00 FD 
    358      8311.551 DT     00F1 Rx 8  D9 FF 2D 82 19 5F 00 82 
    359      8312.729 DT     00F1 Rx 8  06 8F 34 FF 91 00 00 FD 
    360      8313.897 DT     00F1 Rx 8  D9 FF 2E 82 19 5F 00 82 
    361      8315.064 DT     00F1 Rx 8  8F 0F 1F F0 34 FF 91 00 
    362      8316.251 DT     00F1 Rx 8  00 FD D9 FF 2F 82 19 5F 
    363      8317.449 DT     00F1 Rx 8  00 82 8F 8F 1E F0 34 FF 
    364      8318.616 DT     00F1 Rx 8  40 4F D9 FF 04 82 19 4F 
    365      8319.793 DT     00F1 Rx 8  04 82 C2 4F 74 FF 40 5F 
    366      8320.970 DT     00F1 Rx 8  D9 FF 00 82 19 4F 04 82 
    367      8322.147 DT     00F1 Rx 8  60 F2 54 2F 74 FF 91 00 
    368      8323.335 DT     00F1 Rx 8  00 FD D9 FF 30 82 19 5F 
    369      8324.533 DT     00F1 Rx 8  00 82 34 FF 91 00 00 FD 
    370      8325.700 DT     00F1 Rx 8  D9 FF 31 82 19 5F 00 82 
    371      8326.878 DT     00F1 Rx 8  06 8F 34 FF 91 00 00 FD 
    372      8328.055 DT     00F1 Rx 8  D9 FF 32 82 19 5F 00 82 
    373      8329.223 DT     00F1 Rx 8  8F 0F 1F F0 34 FF 91 00 
    374      8330.400 DT     00F1 Rx 8  00 FD D9 FF 33 82 19 5F 
    375      8331.597 DT     00F1 Rx 8  00 82 8F 8F 1E F0 34 FF 
    376      8332.765 DT     00F1 Rx 8  40 4F D9 FF 04 82 19 4F 
    377      8333.922 DT     00F1 Rx 8  04 82 C2 4F 74 FF 6D 00 
    378      8335.109 DT     00F1 Rx 8  CF 01 91 00 00 FD D9 FF 
    379      8336.296 DT     00F1 Rx 8  08 82 91 00 00 2D 19 2F 
    380      8337.473 DT     00F1 Rx 8  08 82 C2 FF 74 FF 91 00 
    381      8338.681 DT     00F1 Rx 8  00 FD 19 FF 08 82 FF 1F 
    382      8339.888 DT     00F1 Rx 8  8B FF 00 00 00 90 91 00 
    383      8341.064 DT     00F1 Rx 8  00 FD D9 FF 21 82 14 FF 
    384      8342.262 DT     00F1 Rx 8  DF 1F 8E 80 91 00 00 FD 
    385      8343.439 DT     00F1 Rx 8  D9 FF 08 82 91 00 00 2D 
    386      8344.637 DT     00F1 Rx 8  19 2F 08 82 06 3F 74 FF 
    387      8345.824 DT     00F1 Rx 8  91 00 00 FD D9 FF 00 82 
    388      8346.991 DT     00F1 Rx 8  91 00 00 2D 19 2F 04 82 
    389      8348.168 DT     00F1 Rx 8  60 F2 54 2F 74 FF 91 00 
    390      8349.355 DT     00F1 Rx 8  00 FD D9 FF 30 82 91 00 
    391      8350.543 DT     00F1 Rx 8  00 2D 19 2F 00 82 34 FF 
    392      8351.731 DT     00F1 Rx 8  91 00 00 FD D9 FF 31 82 
    393      8352.909 DT     00F1 Rx 8  19 2F 00 82 06 8F 34 FF 
    394      8354.086 DT     00F1 Rx 8  91 00 00 FD D9 FF 32 82 
    395      8355.263 DT     00F1 Rx 8  19 2F 00 82 8F 0F 1F F0 
    396      8356.461 DT     00F1 Rx 8  34 FF 91 00 00 FD D9 FF 
    397      8357.628 DT     00F1 Rx 8  33 82 19 2F 00 82 8F 8F 
    398      8358.795 DT     00F1 Rx 8  1E F0 34 FF 3C 24 91 00 
    399      8360.002 DT     00F1 Rx 8  00 FD 19 FF 04 82 60 FF 
    400      8361.210 DT     00F1 Rx 8  14 FF 02 FF 91 00 00 FD 
    401      8362.367 DT     00F1 Rx 8  D9 FF 30 82 14 F0 5F F0 
    402      8363.574 DT     00F1 Rx 8  03 00 3C 1B 91 00 00 FD 
    403      8364.752 DT     00F1 Rx 8  D9 FF 04 82 91 00 00 2D 
    404      8365.939 DT     00F1 Rx 8  19 2F 04 82 C2 1F 74 FF 
    405      8367.126 DT     00F1 Rx 8  91 00 00 FD D9 FF 08 82 
    406      8368.284 DT     00F1 Rx 8  91 00 00 2D 19 2F 08 82 
    407      8369.481 DT     00F1 Rx 8  C2 FF 74 FF 91 00 00 FD 
    408      8370.658 DT     00F1 Rx 8  19 FF 08 82 FF 1F D9 FF 
    409      8371.856 DT     00F1 Rx 8  91 00 00 FD 19 FF 08 82 
    410      8373.024 DT     00F1 Rx 8  EE 22 91 00 00 FD D9 FF 
    411      8374.201 DT     00F1 Rx 8  2C 82 91 00 00 2D D9 22 
    412      8375.377 DT     00F1 Rx 8  20 82 14 2F 34 FF 91 00 
    413      8376.564 DT     00F1 Rx 8  00 FD D9 FF 2D 82 91 00 
    414      8377.721 DT     00F1 Rx 8  00 2D D9 22 21 82 14 2F 
    415      8378.929 DT     00F1 Rx 8  34 FF 91 00 00 FD D9 FF 
    416      8380.106 DT     00F1 Rx 8  2E 82 DA FA 34 FF 91 00 
    417      8381.283 DT     00F1 Rx 8  00 FD D9 FF 2F 82 DA DE 
    418      8382.461 DT     00F1 Rx 8  34 FF 3C 03 6D 00 A6 05 
    419      8383.648 DT     00F1 Rx 8  6D 00 2A 01 00 90 FF FF 
    420      8384.835 DT     00F1 Rx 8  6D 00 64 04 91 00 00 FD 
    421      8386.012 DT     00F1 Rx 8  D9 FF 00 82 91 00 00 2D 
    422      8387.190 DT     00F1 Rx 8  19 2F 04 82 60 F2 54 2F 
    423      8388.348 DT     00F1 Rx 8  74 FF 6D 00 93 05 91 00 
    424      8389.535 DT     00F1 Rx 8  00 FD D9 FF 30 82 91 00 
    425      8390.713 DT     00F1 Rx 8  00 2D 19 2F 00 82 34 FF 
    426      8391.900 DT     00F1 Rx 8  91 00 00 FD D9 FF 31 82 
    427      8393.078 DT     00F1 Rx 8  19 2F 00 82 06 8F 34 FF 
    428      8394.255 DT     00F1 Rx 8  91 00 00 FD D9 FF 32 82 
    429      8395.432 DT     00F1 Rx 8  19 2F 00 82 8F 0F 1F F0 
    430      8396.630 DT     00F1 Rx 8  34 FF 91 00 00 FD D9 FF 
    431      8397.797 DT     00F1 Rx 8  33 82 19 2F 00 82 8F 8F 
    432      8398.974 DT     00F1 Rx 8  1E F0 34 FF 6D 00 F4 00 
    433      8400.181 DT     00F1 Rx 8  00 90 FF FF 6D 00 2E 04 
    434      8401.369 DT     00F1 Rx 8  91 00 00 FD D9 FF 00 82 
    435      8402.536 DT     00F1 Rx 8  91 00 00 2D 19 2F 04 82 
    436      8403.704 DT     00F1 Rx 8  60 F2 54 2F 74 FF DA 01 
    437      8404.881 DT     00F1 Rx 8  91 00 00 FD D9 FF 23 82 
    438      8406.058 DT     00F1 Rx 8  14 F0 0F 0F 10 F0 02 FF 
    439      8407.236 DT     00F1 Rx 8  91 00 00 FD D9 FF 22 82 
    440      8408.414 DT     00F1 Rx 8  14 F0 DF 10 0C 80 91 00 
    441      8409.611 DT     00F1 Rx 8  00 FD D9 FF 00 82 91 00 
    442      8410.797 DT     00F1 Rx 8  00 2D 19 20 00 82 A6 0F 
    443      8411.994 DT     00F1 Rx 8  3C 16 91 00 00 FD D9 FF 
    444      8413.181 DT     00F1 Rx 8  22 82 14 F0 DF 00 11 80 
    445      8414.369 DT     00F1 Rx 8  91 00 00 FD D9 FF 00 82 
    446      8415.546 DT     00F1 Rx 8  91 00 00 2D 19 20 00 82 
    447      8416.724 DT     00F1 Rx 8  BB F0 FF 1F 9B F1 FF 1F 
    448      8417.891 DT     00F1 Rx 8  C6 1F 26 0F 74 FF 91 00 
    449      8419.088 DT     00F1 Rx 8  00 FD 19 FF 04 82 60 FF 
    450      8420.255 DT     00F1 Rx 8  91 00 00 2D 19 2F 00 82 
    451      8421.423 DT     00F1 Rx 8  74 FF 6D 00 23 05 6D 00 
    452      8422.600 DT     00F1 Rx 8  A7 00 00 90 6D 00 B2 04 
    453      8423.777 DT     00F1 Rx 8  6D 00 1C 05 6D 00 A0 00 
    454      8424.985 DT     00F1 Rx 8  85 FF 20 00 BB E0 FF 0F 
    455      8426.152 DT     00F1 Rx 8  9B F0 FF 0F 0F 0F 80 40 
    456      8427.309 DT     00F1 Rx 8  02 44 6D 00 E7 01 85 FF 
    457      8428.506 DT     00F1 Rx 8  20 00 37 0F 61 F0 EE FC 
    458      8429.693 DT     00F1 Rx 8  C5 FF 00 10 85 FF 00 10 
    459      8430.891 DT     00F1 Rx 8  82 00 37 0F 81 F2 74 FF 
    460      8432.068 DT     00F1 Rx 8  91 00 00 2D 19 2F 00 82 
    461      8433.236 DT     00F1 Rx 8  74 FF 85 FF 20 00 8F 1F 
    462      8434.413 DT     00F1 Rx 8  40 41 02 44 6D 00 CE 01 
    463      8435.630 DT     00F1 Rx 8  91 00 00 FD 19 FF 00 82 
    464      8436.807 DT     00F1 Rx 8  6F 5F 26 80 85 FF 00 10 
    465      8437.985 DT     00F1 Rx 8  37 0F 61 F0 6E FC 85 FF 
    466      8439.183 DT     00F1 Rx 8  20 00 BB E0 FF 0F 9B F0 
    467      8440.361 DT     00F1 Rx 8  FF 0F 0F 0F 80 40 02 44 
    468      8441.538 DT     00F1 Rx 8  6D 00 B8 01 85 FF 20 00 
    469      8442.706 DT     00F1 Rx 8  37 0F 61 F0 EE FC C5 FF 
    470      8443.903 DT     00F1 Rx 8  00 10 85 FF 00 10 82 00 
    471      8445.100 DT     00F1 Rx 8  37 0F 81 F2 74 FF 85 FF 
    472      8446.297 DT     00F1 Rx 8  20 00 8F 1F 40 41 02 44 
    473      8447.474 DT     00F1 Rx 8  6D 00 A4 01 91 00 00 FD 
    474      8448.651 DT     00F1 Rx 8  D9 FF 0C 82 91 00 00 2D 
    475      8449.799 DT     00F1 Rx 8  D9 22 22 82 14 2F 74 FF 
    476      8450.986 DT     00F1 Rx 8  91 00 00 FD D9 FF 0C 82 
    477      8452.143 DT     00F1 Rx 8  91 00 00 2D 19 2F 0C 82 
    478      8453.301 DT     00F1 Rx 8  91 00 00 2D D9 22 23 82 
    479      8454.507 DT     00F1 Rx 8  14 20 8F 80 00 00 A6 0F 
    480      8455.675 DT     00F1 Rx 8  74 FF 6D FF 41 FA 00 90 
    481      8456.863 DT     00F1 Rx 8  6D 00 AC 04 6D 00 30 00 
    482      8458.071 DT     00F1 Rx 8  00 90 FF FF 6D 00 3A 04 
    483      8459.269 DT     00F1 Rx 8  91 00 00 FD 19 FF 04 82 
    484      8460.456 DT     00F1 Rx 8  60 FF 91 00 00 2D 19 2F 
    485      8461.644 DT     00F1 Rx 8  00 82 74 FF 6D 00 9A 04 
    486      8462.841 DT     00F1 Rx 8  6D 00 1E 00 00 90 FF FF 
    487      8464.068 DT     00F1 Rx 8  00 02 00 D0 00 12 00 D0 
    488      8465.245 DT     00F1 Rx 8  82 04 02 44 6D FF 60 F9 
    489      8466.442 DT     00F1 Rx 8  02 22 DF 02 FB 7F 82 04 
    490      8467.610 DT     00F1 Rx 8  91 00 00 4D D9 44 14 82 
    491      8468.787 DT     00F1 Rx 8  02 44 40 44 6D FF 84 F9 
    492      8469.965 DT     00F1 Rx 8  82 04 02 44 6D FF D2 FB 
    493      8471.162 DT     00F1 Rx 8  00 90 FF FF 82 14 02 44 
    494      8472.340 DT     00F1 Rx 8  6D FF 5E F9 02 22 DF 02 
    495      8473.517 DT     00F1 Rx 8  FB 7F 82 14 91 00 00 4D 
    496      8474.675 DT     00F1 Rx 8  D9 44 2C 82 02 44 40 44 
    497      8475.872 DT     00F1 Rx 8  6D FF 82 FB DA 00 3B 00 
    498      8477.029 DT     00F1 Rx 8  71 02 3C 02 C2 1F 3F 0F 
    499      8478.207 DT     00F1 Rx 8  FF FF 82 14 02 44 6D FF 
    500      8479.375 DT     00F1 Rx 8  CF FB 82 14 02 44 6D FF 
    501      8480.551 DT     00F1 Rx 8  43 F9 02 22 DF 02 FB 7F 
    502      8481.729 DT     00F1 Rx 8  00 00 00 90 DA 10 9B 0F 
    503      8482.917 DT     00F1 Rx 8  80 FF 60 FF DA E0 9B 1F 
    504      8484.094 DT     00F1 Rx 8  00 F2 74 FF DA 80 9B 0F 
    505      8485.262 DT     00F1 Rx 8  80 FF 60 FF BB 30 A2 F0 
    506      8486.419 DT     00F1 Rx 8  9B 0F 08 F8 74 FF BB 00 
    507      8487.606 DT     00F1 Rx 8  10 F0 9B 0F 80 FF 60 FF 
    508      8488.773 DT     00F1 Rx 8  BB 20 15 F4 9B 8F 89 FC 
    509      8489.921 DT     00F1 Rx 8  74 FF BB 80 10 F0 9B 0F 
    510      8491.138 DT     00F1 Rx 8  80 FF 60 FF BB F0 FF FF 
    511      8492.316 DT     00F1 Rx 8  9B FF FF FC 74 FF BB 00 
    512      8493.534 DT     00F1 Rx 8  11 F0 9B 0F 80 FF 60 FF 
    513      8494.731 DT     00F1 Rx 8  BB F0 FF FF 9B FF FF FC 
    514      8495.898 DT     00F1 Rx 8  74 FF BB 80 11 F0 9B 0F 
    515      8497.116 DT     00F1 Rx 8  80 FF 60 FF BB F0 FF FF 
    516      8498.304 DT     00F1 Rx 8  9B FF FF FC 74 FF DA C0 
    517      8499.491 DT     00F1 Rx 8  9B 0F 80 FF 60 FF BB 00 
    518      8500.648 DT     00F1 Rx 8  00 F2 9B 2F 08 F0 74 FF 
    519      8501.836 DT     00F1 Rx 8  DA C8 9B 0F 80 FF 60 FF 
    520      8503.034 DT     00F1 Rx 8  BB 00 00 F8 9B 0F 09 F0 
    521      8504.202 DT     00F1 Rx 8  74 FF DA D0 9B 0F 80 FF 
    522      8505.410 DT     00F1 Rx 8  60 FF BB 00 00 F8 9B 0F 
    523      8506.587 DT     00F1 Rx 8  09 F0 74 FF DA D8 9B 0F 
    524      8507.794 DT     00F1 Rx 8  80 FF 60 FF BB 00 00 F8 
    525      8508.951 DT     00F1 Rx 8  9B 0F 09 F0 74 FF BB 00 
    526      8510.119 DT     00F1 Rx 8  62 F4 9B 0F 00 FF 60 FF 
    527      8511.306 DT     00F1 Rx 8  7B 00 80 F0 74 FF DA 00 
    528      8512.503 DT     00F1 Rx 8  CD CF E2 0F 0D 00 C0 04 
    529      8513.711 DT     00F1 Rx 8  85 FF 20 00 BB E0 FF 0F 
    530      8514.878 DT     00F1 Rx 8  9B F0 FF 0F 0F 0F 80 40 
    531      8516.075 DT     00F1 Rx 8  02 44 6D 00 BB 00 85 FF 
    532      8517.272 DT     00F1 Rx 8  20 00 37 0F 61 F0 EE FC 
    533      8518.449 DT     00F1 Rx 8  BB 80 01 F2 9B 0F 80 FF 
    534      8519.657 DT     00F1 Rx 8  60 FF BB 00 00 F8 74 FF 
    535      8520.834 DT     00F1 Rx 8  BB C0 01 02 9B 00 80 0F 
    536      8522.002 DT     00F1 Rx 8  60 0F 74 FF 85 FF 20 00 
    537      8523.169 DT     00F1 Rx 8  8F 1F 40 41 02 44 6D 00 
    538      8524.347 DT     00F1 Rx 8  A1 00 85 FF 20 00 BB E0 
    539      8525.504 DT     00F1 Rx 8  FF 0F 9B F0 FF 0F 0F 0F 
    540      8526.691 DT     00F1 Rx 8  80 40 02 44 6D 00 96 00 
    541      8527.889 DT     00F1 Rx 8  85 FF 20 00 37 0F 61 F0 
    542      8529.056 DT     00F1 Rx 8  EE FC BB 00 F0 F3 9B 4F 
    543      8530.264 DT     00F1 Rx 8  00 FF 60 FF DA 00 74 FF 
    544      8531.421 DT     00F1 Rx 8  BB 00 F1 F3 9B 4F 00 FF 
    545      8532.619 DT     00F1 Rx 8  60 FF 3B 00 20 F0 74 FF 
    546      8533.797 DT     00F1 Rx 8  85 FF 20 00 8F 1F 40 41 
    547      8534.955 DT     00F1 Rx 8  02 44 6D 00 7B 00 BB 00 
    548      8536.112 DT     00F1 Rx 8  F2 F3 9B 4F 00 FF 60 FF 
    549      8537.279 DT     00F1 Rx 8  DA 00 74 FF BB 40 F2 03 
    550      8538.446 DT     00F1 Rx 8  9B 40 00 0F 60 0F 74 FF 
    551      8539.614 DT     00F1 Rx 8  BB C0 FE F3 9B 4F 00 FF 
    552      8540.801 DT     00F1 Rx 8  60 FF 3B 00 00 F1 74 FF 
    553      8541.979 DT     00F1 Rx 8  BB 80 FE 03 9B 40 00 0F 
    554      8543.156 DT     00F1 Rx 8  60 0F 74 FF BB 40 FE 03 
    555      8544.323 DT     00F1 Rx 8  9B 40 00 0F 60 0F 74 FF 
    556      8545.511 DT     00F1 Rx 8  BB 00 FE 03 9B 40 00 0F 
    557      8546.678 DT     00F1 Rx 8  60 0F 74 FF BB C0 FD 03 
    558      8547.855 DT     00F1 Rx 8  9B 40 00 0F 60 0F 74 FF 
    559      8549.062 DT     00F1 Rx 8  85 FF 20 00 BB E0 FF 0F 
    560      8550.229 DT     00F1 Rx 8  9B F0 FF 0F 0F 0F 80 40 
    561      8551.386 DT     00F1 Rx 8  02 44 6D 00 43 00 85 FF 
    562      8552.583 DT     00F1 Rx 8  20 00 37 0F 61 F0 EE FC 
    563      8553.761 DT     00F1 Rx 8  C5 FF 18 10 BB F0 FF FF 
    564      8554.959 DT     00F1 Rx 8  9B FF 0F F0 74 FF C5 FF 
    565      8556.156 DT     00F1 Rx 8  1C 10 BB F0 FF FF 9B FF 
    566      8557.364 DT     00F1 Rx 8  0F F0 74 FF C5 FF 08 10 
    567      8558.531 DT     00F1 Rx 8  BB 30 40 F9 9B 3F 00 F0 
    568      8559.698 DT     00F1 Rx 8  74 FF 85 FF 20 00 8F 1F 
    569      8560.895 DT     00F1 Rx 8  40 41 02 44 6D 00 22 00 
    570      8562.103 DT     00F1 Rx 8  85 FF 20 00 BB E0 FF 0F 
    571      8563.270 DT     00F1 Rx 8  9B F0 FF 0F 0F 0F 80 40 
    572      8564.437 DT     00F1 Rx 8  02 44 6D 00 17 00 85 FF 
    573      8565.634 DT     00F1 Rx 8  20 00 37 0F 61 F0 EE FC 
    574      8566.822 DT     00F1 Rx 8  C5 FF C0 03 DA 00 74 FF 
    575      8567.999 DT     00F1 Rx 8  85 FF 20 00 8F 1F 40 41 
    576      8569.187 DT     00F1 Rx 8  02 44 6D 00 07 00 0D 00 
    577      8570.394 DT     00F1 Rx 8  40 03 00 00 00 90 FF FF 
    578      8571.572 DT     00F1 Rx 8  02 44 85 FF 20 00 02 FF 
    579      8572.749 DT     00F1 Rx 8  96 F0 85 F0 24 00 37 00 
    580      8573.937 DT     00F1 Rx 8  E1 01 76 03 96 08 3C 06 
    581      8575.094 DT     00F1 Rx 8  BB 70 FF 0F 9B F0 FF 0F 
    582      8576.291 DT     00F1 Rx 8  26 0F 85 F0 24 00 37 00 
    583      8577.449 DT     00F1 Rx 8  61 01 76 03 96 04 3C 06 
    584      8578.606 DT     00F1 Rx 8  BB B0 FF 0F 9B F0 FF 0F 
    585      8579.783 DT     00F1 Rx 8  26 0F BB D0 FF 0F 9B F0 
    586      8580.960 DT     00F1 Rx 8  FF 0F 26 0F C5 FF 20 00 
    587      8582.098 DT     00F1 Rx 8  74 FF 8F 24 4F 41 BB 30 
    588      8583.305 DT     00F1 Rx 8  FF FF 9B FF FF FF 26 F4 
    589      8584.512 DT     00F1 Rx 8  74 F4 00 90 00 00 00 00 
    590      8585.778 DT     00F1 Rx 8  00 00 00 00 00 00 00 00 
    591      8587.046 DT     00F1 Rx 8  00 00 00 00 00 00 00 00 
    592      8588.313 DT     00F1 Rx 8  00 00 00 00 00 00 00 00 
    593      8589.559 DT     00F1 Rx 8  00 00 00 00 FF FF FF FF 
    594      8590.727 DT     00F1 Rx 8  4D 40 E0 0F 8F F0 C7 01 
    595      8591.894 DT     00F1 Rx 8  B7 10 81 03 B7 10 01 04 
    596      8593.072 DT     00F1 Rx 8  CD 40 E0 0F 0D 00 C0 04 
    597      8594.250 DT     00F1 Rx 8  7B 00 00 0D 1B 80 33 04 
    598      8595.438 DT     00F1 Rx 8  7B 00 00 70 1B 87 FF 7F 
    599      8596.615 DT     00F1 Rx 8  26 70 60 0A 4D 00 E0 0F 
    600      8597.832 DT     00F1 Rx 8  7B 00 FF 1F 26 10 CD 00 
    601      8598.999 DT     00F1 Rx 8  E0 0F 0D 00 C0 04 82 F0 
    602      8600.157 DT     00F1 Rx 8  3C 45 91 00 40 2D D9 22 
    603      8601.324 DT     00F1 Rx 8  E8 A0 01 20 02 26 91 00 
    604      8602.481 DT     00F1 Rx 8  40 3D D9 33 EC A0 01 30 
    605      8603.629 DT     00F1 Rx 8  02 36 54 3F 54 22 A2 2F 
    606      8604.776 DT     00F1 Rx 8  06 AF 6E 34 D4 22 80 21 
    607      8605.964 DT     00F1 Rx 8  37 01 64 1E 8F 01 01 10 
    608      8607.141 DT     00F1 Rx 8  F6 0F 80 23 82 02 89 22 
    609      8608.308 DT     00F1 Rx 8  00 11 C2 FF 80 22 37 02 
    610      8609.436 DT     00F1 Rx 8  70 23 A6 12 CD C2 E3 0F 
    611      8610.633 DT     00F1 Rx 8  0D 00 C0 04 3C 0C 37 03 
    612      8611.811 DT     00F1 Rx 8  64 7E 8F 07 01 70 37 03 
    613      8612.949 DT     00F1 Rx 8  70 23 A6 72 80 23 89 22 
    614      8614.116 DT     00F1 Rx 8  00 11 C2 FF 76 FC C2 FF 
    615      8615.283 DT     00F1 Rx 8  60 F5 37 03 70 23 A6 12 
    616      8616.530 DT     00F1 Rx 8  80 23 89 22 00 11 00 00 
    617      8617.717 DT     00F1 Rx 8  00 00 FC 58 37 03 70 23 
    618      8618.855 DT     00F1 Rx 8  A6 12 CD 82 E3 0F 0D 00 
    619      8620.012 DT     00F1 Rx 8  C0 04 C2 10 BF 10 BB 7F 
    620      8621.149 DT     00F1 Rx 8  91 00 40 2D D9 22 42 11 
    621      8622.356 DT     00F1 Rx 8  00 00 2D 02 00 00 91 00 
    622      8623.514 DT     00F1 Rx 8  00 2F 49 22 24 0A 54 20 
    623      8624.702 DT     00F1 Rx 8  7B 00 00 10 1B 81 00 10 
    624      8625.889 DT     00F1 Rx 8  0F 10 A0 00 74 20 7B 00 
    625      8627.067 DT     00F1 Rx 8  40 0D 1B 00 60 01 CD 40 
    626      8628.255 DT     00F1 Rx 8  E2 0F 0D 00 C0 04 7B 00 
    627      8629.432 DT     00F1 Rx 8  40 0D 1B 00 5A 01 CD 00 
    628      8630.620 DT     00F1 Rx 8  E2 0F 0D 00 C0 04 7B 00 
    629      8631.797 DT     00F1 Rx 8  00 0D 1B 80 73 04 7B 00 
    630      8632.995 DT     00F1 Rx 8  00 70 1B 87 FF 7F 26 70 
    631      8634.192 DT     00F1 Rx 8  CD 80 E2 0F 0D 00 C0 04 
    632      8635.349 DT     00F1 Rx 8  91 00 40 2D D9 22 4A 21 
    633      8636.556 DT     00F1 Rx 8  00 00 2D 02 00 00 91 00 
    634      8637.773 DT     00F1 Rx 8  00 00 D9 00 00 00 91 00 
    635      8638.950 DT     00F1 Rx 8  00 10 D9 11 00 00 91 00 
    636      8640.157 DT     00F1 Rx 8  00 80 D9 88 00 00 91 00 
    637      8641.334 DT     00F1 Rx 8  00 90 D9 99 00 00 7B 00 
    638      8642.502 DT     00F1 Rx 8  08 28 1B 32 A2 20 91 00 
    639      8643.690 DT     00F1 Rx 8  80 FF 49 FF 00 2A 74 F2 
    640      8644.828 DT     00F1 Rx 8  7B 80 89 2C 1B 22 15 24 
    641      8645.995 DT     00F1 Rx 8  91 00 80 FF 49 FF 00 4A 
    642      8647.152 DT     00F1 Rx 8  74 F2 7B 00 00 2D 1B F2 
    643      8648.339 DT     00F1 Rx 8  FF 2F 91 00 80 FF 49 FF 
    644      8649.507 DT     00F1 Rx 8  08 4A 74 F2 7B 00 00 2D 
    645      8650.724 DT     00F1 Rx 8  1B F2 FF 2F 91 00 80 FF 
    646      8651.882 DT     00F1 Rx 8  49 FF 10 4A 74 F2 7B 00 
    647      8653.069 DT     00F1 Rx 8  00 2D 1B F2 FF 2F 91 00 
    648      8654.226 DT     00F1 Rx 8  80 FF 49 FF 18 4A 74 F2 
    649      8655.403 DT     00F1 Rx 8  7B 20 08 20 1B 02 00 22 
    650      8656.579 DT     00F1 Rx 8  91 00 80 FF 49 FF 00 3A 
    651      8657.727 DT     00F1 Rx 8  74 F2 7B 10 09 20 1B 02 
    652      8658.904 DT     00F1 Rx 8  00 28 91 00 80 FF 49 FF 
    653      8660.061 DT     00F1 Rx 8  08 3A 74 F2 7B 10 09 20 
    654      8661.248 DT     00F1 Rx 8  1B 02 00 28 91 00 80 FF 
    655      8662.405 DT     00F1 Rx 8  49 FF 10 3A 74 F2 7B 10 
    656      8663.593 DT     00F1 Rx 8  09 20 1B 02 00 28 91 00 
    657      8664.751 DT     00F1 Rx 8  80 FF 49 FF 18 3A 74 F2 
    658      8665.888 DT     00F1 Rx 8  91 00 40 2D D9 22 64 31 
    659      8667.126 DT     00F1 Rx 8  00 00 2D 02 00 00 82 04 
    660      8668.293 DT     00F1 Rx 8  91 00 40 4D D9 44 30 50 
    661      8669.450 DT     00F1 Rx 8  82 02 91 00 40 2D D9 22 
    662      8670.678 DT     00F1 Rx 8  08 00 00 00 2D 02 00 00 
    663      8671.825 DT     00F1 Rx 8  02 24 91 00 40 2D D9 22 
    664      8673.022 DT     00F1 Rx 8  44 51 00 00 2D 02 00 00 
    665      8674.259 DT     00F1 Rx 8  00 A0 00 00 00 00 FD F0 
    666      8675.466 DT     00F1 Rx 8  FD FF 91 00 00 3F 49 33 
    667      8676.654 DT     00F1 Rx 8  20 0A 54 30 91 00 00 4F 
    668      8677.802 DT     00F1 Rx 8  49 44 24 0A 54 41 7B 00 
    669      8678.969 DT     00F1 Rx 8  00 20 1B 12 F0 2F 0F 02 
    670      8680.156 DT     00F1 Rx 8  80 00 8F 00 4F 01 8F C1 
    671      8681.344 DT     00F1 Rx 8  00 41 0F 04 A0 00 74 30 
    672      8682.521 DT     00F1 Rx 8  7B 00 00 40 1B 04 FF 4F 
    673      8683.729 DT     00F1 Rx 8  0F 04 80 00 8F 20 40 01 
    674      8684.916 DT     00F1 Rx 8  0D 00 C0 04 74 30 54 30 
    675      8686.093 DT     00F1 Rx 8  00 90 91 00 00 3F 49 33 
    676      8687.270 DT     00F1 Rx 8  20 0A 54 30 91 00 00 4F 
    677      8688.417 DT     00F1 Rx 8  49 44 24 0A 54 41 7B 00 
    678      8689.594 DT     00F1 Rx 8  00 20 1B 12 F0 2F 0F 02 
    679      8690.781 DT     00F1 Rx 8  80 00 8F 00 4F 01 8F C1 
    680      8691.969 DT     00F1 Rx 8  00 41 0F 04 A0 00 74 30 
    681      8693.146 DT     00F1 Rx 8  7B 00 00 40 1B 04 FF 4F 
    682      8694.344 DT     00F1 Rx 8  0F 04 80 00 8F 30 40 01 
    683      8695.532 DT     00F1 Rx 8  0D 00 C0 04 74 30 00 90 
    684      8696.730 DT     00F1 Rx 8  0D 00 80 04 0D 00 C0 04 
    685      8697.997 DT     00F1 Rx 8  00 00 00 00 00 00 00 00 
    686      8699.195 DT     00F1 Rx 8  00 00 00 90 91 00 40 3D 
    687      8700.372 DT     00F1 Rx 8  D9 33 80 01 82 00 44 3F 
    688      8701.500 DT     00F1 Rx 8  C4 34 C4 35 44 36 02 67 
    689      8702.647 DT     00F1 Rx 8  8F 37 00 71 06 E6 60 66 
    690      8703.824 DT     00F1 Rx 8  1E 16 DF 2F 14 00 3C 1E 
    691      8705.011 DT     00F1 Rx 8  44 51 64 41 00 00 00 00 
    692      8706.168 DT     00F1 Rx 8  FC 6C 60 76 BD 06 ED 7F 
    693      8707.376 DT     00F1 Rx 8  3C 04 09 51 01 00 24 41 
    694      8708.574 DT     00F1 Rx 8  00 00 00 00 FC 6B 3C E4 
    695      8709.772 DT     00F1 Rx 8  64 40 00 00 00 00 FC 6D 
    696      8710.929 DT     00F1 Rx 8  60 76 BD 06 DE 7F 3C 02 
    697      8712.137 DT     00F1 Rx 8  24 40 00 00 00 00 FC 6D 
    698      8713.314 DT     00F1 Rx 8  3C D7 00 90 02 4F 6D 00 
    699      8714.501 DT     00F1 Rx 8  07 00 6D 00 05 00 02 F4 
    700      8715.688 DT     00F1 Rx 8  1D FF 74 FF 00 00 00 90 
    701      8716.896 DT     00F1 Rx 8  91 00 00 FD D9 FF 04 82 
    702      8718.053 DT     00F1 Rx 8  91 00 00 2D D9 22 24 82 
    703      8719.230 DT     00F1 Rx 8  14 2F 74 FF 91 00 00 FD 
    704      8720.408 DT     00F1 Rx 8  D9 FF 04 82 91 00 00 2D 
    705      8721.575 DT     00F1 Rx 8  19 2F 04 82 8F 8F 00 F0 
    706      8722.773 DT     00F1 Rx 8  74 FF 40 2F D9 FF 04 82 
    707      8723.950 DT     00F1 Rx 8  19 2F 04 82 91 00 00 4D 
    708      8725.107 DT     00F1 Rx 8  D9 44 25 82 14 40 A6 0F 
    709      8726.304 DT     00F1 Rx 8  74 FF 40 2F D9 FF 04 82 
    710      8727.471 DT     00F1 Rx 8  19 2F 04 82 8F 8F 00 F0 
    711      8728.669 DT     00F1 Rx 8  74 FF 40 2F D9 FF 04 82 
    712      8729.846 DT     00F1 Rx 8  19 2F 04 82 91 00 00 4D 
    713      8731.013 DT     00F1 Rx 8  D9 44 26 82 14 40 A6 0F 
    714      8732.211 DT     00F1 Rx 8  74 FF 40 2F D9 FF 04 82 
    715      8733.377 DT     00F1 Rx 8  19 2F 04 82 8F 8F 00 F0 
    716      8734.575 DT     00F1 Rx 8  74 FF 40 2F D9 FF 04 82 
    717      8735.752 DT     00F1 Rx 8  19 2F 04 82 91 00 00 2D 
    718      8736.919 DT     00F1 Rx 8  D9 22 27 82 14 20 A6 0F 
    719      8738.117 DT     00F1 Rx 8  74 FF 00 90 FF FF FF FF 
    720      8739.355 DT     00F1 Rx 8  FF FF FF FF FF FF FF FF 
    721      8740.602 DT     00F1 Rx 8  FF FF FF FF FF FF FF FF 
    722      8741.809 DT     00F1 Rx 8  0D 00 00 02 02 F4 00 A0 
    723      8742.986 DT     00F1 Rx 8  6D FF 9E FF 0D 00 40 02 
    724      8744.223 DT     00F1 Rx 8  00 00 00 80 FF FF FF FF 
    725      8745.461 DT     00F1 Rx 8  FF FF FF FF FF FF FF FF 
    726      8746.668 DT     00F1 Rx 8  0D 00 00 02 02 FF 00 A0 
    727      8747.846 DT     00F1 Rx 8  8F 0F 41 41 6D FF 8C FF 
    728      8749.073 DT     00F1 Rx 8  0D 00 40 02 00 00 00 80 
    729      8750.310 DT     00F1 Rx 8  FF FF FF FF FF FF FF FF 
    730      8751.527 DT     00F1 Rx 8  0D 00 00 02 02 FF 00 A0 
    731      8752.705 DT     00F1 Rx 8  8F 0F 42 41 6D FF 7C FF 
    732      8753.933 DT     00F1 Rx 8  0D 00 40 02 00 00 00 80 
    733      8755.169 DT     00F1 Rx 8  FF FF FF FF FF FF FF FF 
    734      8756.377 DT     00F1 Rx 8  0D 00 00 02 02 FF 00 A0 
    735      8757.524 DT     00F1 Rx 8  8F 0F 43 41 6D FF 6C FF 
    736      8758.751 DT     00F1 Rx 8  0D 00 40 02 00 00 00 80 
    737      8759.988 DT     00F1 Rx 8  FF FF FF FF FF FF FF FF 
    738      8761.195 DT     00F1 Rx 8  0D 00 00 02 02 FF 00 A0 
    739      8762.343 DT     00F1 Rx 8  8F 0F 44 41 6D FF 5C FF 
    740      8763.570 DT     00F1 Rx 8  0D 00 40 02 00 00 00 80 
    741      8764.807 DT     00F1 Rx 8  FF FF FF FF FF FF FF FF 
    742      8766.014 DT     00F1 Rx 8  0D 00 00 02 02 FF 00 A0 
    743      8767.172 DT     00F1 Rx 8  8F 0F 45 41 6D FF 4C FF 
    744      8768.399 DT     00F1 Rx 8  0D 00 40 02 00 00 00 80 
    745      8769.637 DT     00F1 Rx 8  FF FF FF FF FF FF FF FF 
    746      8770.804 DT     00F1 Rx 8  02 FF 00 A0 8F 0F 46 41 
    747      8772.002 DT     00F1 Rx 8  6D FF 3E FF 00 80 FF FF 
    748      8773.238 DT     00F1 Rx 8  FF FF FF FF FF FF FF FF 
    749      8774.476 DT     00F1 Rx 8  FF FF FF FF FF FF FF FF 
    750      8775.683 DT     00F1 Rx 8  0D 00 00 02 02 FF 00 A0 
    751      8776.841 DT     00F1 Rx 8  8F 0F 47 41 6D FF 2C FF 
    752      8778.068 DT     00F1 Rx 8  0D 00 40 02 00 00 00 80 
    753      8779.255 DT     00F1 Rx 8  91 00 00 FD D9 FF 00 82 
    754      8780.432 DT     00F1 Rx 8  91 00 00 2D D9 22 27 82 
    755      8781.609 DT     00F1 Rx 8  14 2F 74 FF 91 00 00 FD 
    756      8782.786 DT     00F1 Rx 8  D9 FF 00 82 91 00 00 2D 
    757      8783.964 DT     00F1 Rx 8  19 2F 00 82 8F 8F 00 F0 
    758      8785.151 DT     00F1 Rx 8  74 FF 40 2F D9 FF 00 82 
    759      8786.329 DT     00F1 Rx 8  19 2F 00 82 91 00 00 4D 
    760      8787.496 DT     00F1 Rx 8  D9 44 26 82 14 40 A6 0F 
    761      8788.683 DT     00F1 Rx 8  74 FF 40 2F D9 FF 00 82 
    762      8789.860 DT     00F1 Rx 8  19 2F 00 82 8F 8F 00 F0 
    763      8791.047 DT     00F1 Rx 8  74 FF 40 2F D9 FF 00 82 
    764      8792.225 DT     00F1 Rx 8  19 2F 00 82 91 00 00 4D 
    765      8793.392 DT     00F1 Rx 8  D9 44 25 82 14 40 A6 0F 
    766      8794.580 DT     00F1 Rx 8  74 FF 40 2F D9 FF 00 82 
    767      8795.766 DT     00F1 Rx 8  19 2F 00 82 8F 8F 00 F0 
    768      8796.954 DT     00F1 Rx 8  74 FF 40 2F D9 FF 00 82 
    769      8798.131 DT     00F1 Rx 8  19 2F 00 82 91 00 00 2D 
    770      8799.289 DT     00F1 Rx 8  D9 22 24 82 14 20 A6 0F 
    771      8800.476 DT     00F1 Rx 8  74 FF 00 90 91 00 00 FD 
    772      8801.653 DT     00F1 Rx 8  D9 FF 08 82 91 00 00 2D 
    773      8802.800 DT     00F1 Rx 8  D9 22 22 82 14 2F 74 FF 
    774      8803.988 DT     00F1 Rx 8  91 00 00 FD D9 FF 08 82 
    775      8805.145 DT     00F1 Rx 8  91 00 00 2D 19 2F 08 82 
    776      8806.332 DT     00F1 Rx 8  8F 8F 00 F0 74 FF 40 2F 
    777      8807.490 DT     00F1 Rx 8  D9 FF 08 82 19 2F 08 82 
    778      8808.647 DT     00F1 Rx 8  91 00 00 2D D9 22 23 82 
    779      8809.824 DT     00F1 Rx 8  14 20 A6 0F 74 FF 00 90 
    780      8811.022 DT     00F1 Rx 8  DA 00 02 FF 82 F1 3C 10 
    781      8812.199 DT     00F1 Rx 8  91 00 00 FD D9 FF 2C 82 
    782      8813.386 DT     00F1 Rx 8  10 FF 91 00 00 2D D9 22 
    783      8814.584 DT     00F1 Rx 8  20 82 10 22 14 20 C6 10 
    784      8815.761 DT     00F1 Rx 8  34 F0 C2 1F 02 FF BF 8F 
    785      8816.958 DT     00F1 Rx 8  F1 FF 00 00 00 90 FF FF 
    786      8818.185 DT     00F1 Rx 8  02 00 00 00 00 12 00 D0 
    787      8819.443 DT     00F1 Rx 8  00 00 00 00 14 10 00 00 
    788      8820.650 DT     00F1 Rx 8  01 00 00 00 14 22 00 D0 
    789      8821.837 DT     00F1 Rx 8  DC 11 00 D4 20 00 00 00 
    790      8823.085 DT     00F1 Rx 8  00 00 00 00 FF FF FF FF 
    791      8824.322 DT     00F1 Rx 8  FF FF FF FF FF FF FF FF 
    792      8825.559 DT     00F1 Rx 8  FF FF FF FF FF FF FF FF 
    793      8826.796 DT     00F1 Rx 8  FF FF FF FF FF FF FF FF 
    794      8828.034 DT     00F1 Rx 8  FF FF FF FF FF FF FF FF 
    795      8829.270 DT     00F1 Rx 8  FF FF FF FF FF FF FF FF 
    796      8830.507 DT     00F1 Rx 8  FF FF FF FF FF FF FF FF 
    797      8831.744 DT     00F1 Rx 8  FF FF FF FF FF FF FF FF 
    798      8832.981 DT     00F1 Rx 8  FF FF FF FF FF FF FF FF 
    799      8834.219 DT     00F1 Rx 8  FF FF FF FF FF FF FF FF 
    800      8835.456 DT     00F1 Rx 8  FF FF FF FF FF FF FF FF 
    801      8836.694 DT     00F1 Rx 8  FF FF FF FF FF FF FF FF 
    802      8837.931 DT     00F1 Rx 8  FF FF FF FF FF FF FF FF 
    803      8839.168 DT     00F1 Rx 8  FF FF FF FF FF FF FF FF 
    804      8840.416 DT     00F1 Rx 8  FF FF FF FF FF FF FF FF 
    805      8841.652 DT     00F1 Rx 8  FF FF FF FF FF FF FF FF 
    806      8842.890 DT     00F1 Rx 8  FF FF FF FF FF FF FF FF 
    807      8844.127 DT     00F1 Rx 8  FF FF FF FF FF FF FF FF 
    808      8845.374 DT     00F1 Rx 8  FF FF FF FF FF FF FF FF 
    809      8846.612 DT     00F1 Rx 8  FF FF FF FF FF FF FF FF 
    810      8847.849 DT     00F1 Rx 8  FF FF FF FF FF FF FF FF 
    811      8849.086 DT     00F1 Rx 8  FF FF FF FF FF FF FF FF 
    812      8850.323 DT     00F1 Rx 8  FF FF FF FF FF FF FF FF 
    813      8851.561 DT     00F1 Rx 8  FF FF FF FF FF FF FF FF 
    814      8852.797 DT     00F1 Rx 8  FF FF FF FF FF FF FF FF 
    815      8854.034 DT     00F1 Rx 8  FF FF FF FF FF FF FF FF 
    816      8855.272 DT     00F1 Rx 8  FF FF FF FF FF FF FF FF 
    817      8856.509 DT     00F1 Rx 8  FF FF FF FF FF FF FF FF 
    818      8856.909 ER          Rx    04 01 0A 00 00
    819      8857.178 ER          Rx    04 01 02 00 00
    820      8857.418 ER          Rx    04 01 02 00 00
    821      8857.657 ER          Rx    04 01 02 00 00
    822      8857.897 ER          Rx    04 01 02 00 00
    823      8858.136 ER          Rx    04 01 02 00 00
    824      8858.376 ER          Rx    04 01 02 00 00
    825      8858.606 ER          Rx    04 01 02 00 00
    826      8858.845 ER          Rx    04 01 02 00 00
    827      8859.085 ER          Rx    04 01 02 00 00
    828      8859.324 ER          Rx    04 01 02 00 00
    829      8859.564 ER          Rx    04 01 02 00 00
    830      8859.803 ER          Rx    04 01 02 00 00
    831      8860.043 ER          Rx    04 01 02 00 00
    832      8860.292 ER          Rx    04 01 02 00 00
    833      8860.522 ER          Rx    04 01 02 00 00
    834      8860.762 ER          Rx    04 01 02 00 00
    835      8861.001 ER          Rx    04 01 02 00 00
    836      8861.241 ER          Rx    04 01 02 00 00
    837      8861.480 ER          Rx    04 01 02 00 00
    838      8861.720 ER          Rx    04 01 02 00 00
    839      8861.949 ER          Rx    04 01 02 00 00
    840      8862.189 ER          Rx    04 01 02 00 00
    841      8862.429 ER          Rx    04 01 02 00 00
    842      8862.668 ER          Rx    04 01 02 00 00
    843      8862.908 ER          Rx    04 01 02 00 00
    844      8863.147 ER          Rx    04 01 02 00 00
    845      8863.377 ER          Rx    04 01 02 00 00
    846      8863.616 ER          Rx    04 01 02 00 00
    847      8863.856 ER          Rx    04 01 02 00 00
    848      8864.096 ER          Rx    04 01 02 00 00
    849      8864.335 ER          Rx    04 01 02 00 00
    850      8864.575 ER          Rx    04 01 02 00 00
    851      8864.814 ER          Rx    04 01 02 00 00
    852      8865.064 ER          Rx    04 01 02 00 00
    853      8865.293 ER          Rx    04 01 02 00 00
    854      8865.533 ER          Rx    04 01 02 00 00
    855      8865.772 ER          Rx    04 01 02 00 00
    856      8866.011 ER          Rx    04 01 02 00 00
    857      8866.251 ER          Rx    04 01 02 00 00
    858      8866.490 ER          Rx    04 01 02 00 00
    859      8866.730 ER          Rx    04 01 02 00 00
    860      8866.959 ER          Rx    04 01 02 00 00
    861      8867.199 ER          Rx    04 01 02 00 00
    862      8867.439 ER          Rx    04 01 02 00 00
    863      8867.678 ER          Rx    04 01 02 00 00
    864      8867.918 ER          Rx    04 01 02 00 00
    865      8868.157 ER          Rx    04 01 02 00 00
    866      8868.397 ER          Rx    04 01 02 00 00
    867      8868.646 ER          Rx    04 01 02 00 00
    868      8868.876 ER          Rx    04 01 02 00 00
    869      8869.116 ER          Rx    04 01 02 00 00
    870      8869.355 ER          Rx    04 01 02 00 00
    871      8869.595 ER          Rx    04 01 02 00 00
    872      8869.834 ER          Rx    04 01 02 00 00
    873      8870.074 ER          Rx    04 01 02 00 00
    874      8870.313 ER          Rx    04 01 02 00 00
    875      8870.563 ER          Rx    04 01 02 00 00
    876      8870.792 ER          Rx    04 01 02 00 00
    877      8871.032 ER          Rx    04 01 02 00 00
    878      8871.272 ER          Rx    04 01 02 00 00
    879      8871.511 ER          Rx    04 01 02 00 00
    880      8871.751 ER          Rx    04 01 02 00 00
    881      8871.990 ER          Rx    04 01 02 00 00
    882      8872.220 ER          Rx    04 01 02 00 00
    883      8872.459 ER          Rx    04 01 02 00 00
    884      8872.699 ER          Rx    04 01 02 00 00
    885      8872.939 ER          Rx    04 01 02 00 00
    886      8873.178 ER          Rx    04 01 02 00 00
    887      8873.418 ER          Rx    04 01 02 00 00
    888      8873.657 ER          Rx    04 01 02 00 00
    889      8873.907 ER          Rx    04 01 02 00 00
    890      8874.136 ER          Rx    04 01 02 00 00
    891      8874.376 ER          Rx    04 01 02 00 00
    892      8874.616 ER          Rx    04 01 02 00 00
    893      8874.855 ER          Rx    04 01 02 00 00
    894      8875.095 ER          Rx    04 01 02 00 00
    895      8875.334 ER          Rx    04 01 02 00 00
    896      8875.564 ER          Rx    04 01 02 00 00
    897      8875.803 ER          Rx    04 01 02 00 00
    898      8876.043 ER          Rx    04 01 02 00 00
    899      8876.283 ER          Rx    04 01 02 00 00
    900      8876.522 ER          Rx    04 01 02 00 00
    901      8876.762 ER          Rx    04 01 02 00 00
    902      8877.001 ER          Rx    04 01 02 00 00
    903      8877.231 ER          Rx    04 01 02 00 00
    904      8877.470 ER          Rx    04 01 02 00 00
    905      8877.710 ER          Rx    04 01 02 00 00
    906      8877.950 ER          Rx    04 01 02 00 00
    907      8878.189 ER          Rx    04 01 02 00 00
    908      8878.429 ER          Rx    04 01 02 00 00
    909      8878.668 ER          Rx    04 01 02 00 00
    910      8878.918 ER          Rx    04 01 02 00 00
    911      8879.147 ER          Rx    04 01 02 00 00
    912      8879.387 ER          Rx    04 01 02 00 00
    913      8879.627 ER          Rx    04 01 02 00 00
    914      8879.866 ER          Rx    04 01 02 00 00
    915      8880.106 ER          Rx    04 01 02 00 00
    916      8880.345 ER          Rx    04 01 02 00 00
    917      8880.585 ER          Rx    04 01 02 00 00
    918      8880.814 ER          Rx    04 01 02 00 00
    919      8881.054 ER          Rx    04 01 02 00 00
    920      8881.293 ER          Rx    04 01 02 00 00
    921      8881.533 ER          Rx    04 01 02 00 00
    922      8881.773 ER          Rx    04 01 02 00 00
    923      8882.012 ER          Rx    04 01 02 00 00
    924      8882.242 ER          Rx    04 01 02 00 00
    925      8883.599 DT     00F1 Rx 8  20 00 00 00 F0 00 00 40 
    926      8884.957 DT     00F1 Rx 8  20 00 00 00 F0 00 00 40 
    927      8886.314 DT     00F1 Rx 8  20 00 00 00 F0 00 00 40 
    928      8887.672 DT     00F1 Rx 8  20 00 00 00 F0 00 00 40 
    929      8889.030 DT     00F1 Rx 8  20 00 00 00 F0 00 00 40 
    930      8890.387 DT     00F1 Rx 8  20 00 00 00 F0 00 00 40 
    931      8891.745 DT     00F1 Rx 8  20 00 00 00 F0 00 00 40 
    932      8893.102 DT     00F1 Rx 8  20 00 00 00 F0 00 00 40 
    933      8894.460 DT     00F1 Rx 8  20 00 00 00 F0 00 00 40 
    934      8895.817 DT     00F1 Rx 8  20 00 00 00 F0 00 00 40 
    935      8897.175 DT     00F1 Rx 8  20 00 00 00 F0 00 00 40 
    936      8898.532 DT     00F1 Rx 8  20 00 00 00 F0 00 00 40 
    937      8899.890 DT     00F1 Rx 8  20 00 00 00 F0 00 00 40 
    938      8901.246 DT     00F1 Rx 8  20 00 00 00 F0 00 00 40 
    939      8902.604 DT     00F1 Rx 8  20 00 00 00 F0 00 00 40 
    940      8903.962 DT     00F1 Rx 8  20 00 00 00 F0 00 00 40 
    941      8905.319 DT     00F1 Rx 8  20 00 00 00 F0 00 00 40 
    942      8906.677 DT     00F1 Rx 8  20 00 00 00 F0 00 00 40 
    943      8908.034 DT     00F1 Rx 8  20 00 00 00 F0 00 00 40 
    944      8909.392 DT     00F1 Rx 8  20 00 00 00 F0 00 00 40 
    945      8910.749 DT     00F1 Rx 8  20 00 00 00 F0 00 00 40 
    946      8912.107 DT     00F1 Rx 8  20 00 00 00 F0 00 00 40 
    947      8913.464 DT     00F1 Rx 8  20 00 00 00 F0 00 00 40 
    948      8914.822 DT     00F1 Rx 8  20 00 00 00 F0 00 00 40 
    949      8916.179 DT     00F1 Rx 8  20 00 00 00 F0 00 00 40 
    950      8917.537 DT     00F1 Rx 8  20 00 00 00 F0 00 00 40 
    951      8917.776 ER          Rx    04 01 02 00 00
    952      8919.144 DT     00F1 Rx 8  20 00 00 00 F0 00 00 40 
    953      8919.384 ER          Rx    04 01 02 00 00
    954      8920.751 DT     00F1 Rx 8  20 00 00 00 F0 00 00 40 
    955      8920.991 ER          Rx    04 01 02 00 00
    956      8922.358 DT     00F1 Rx 8  20 00 00 00 F0 00 00 40 
    957      8922.598 ER          Rx    04 01 02 00 00
    958      8923.965 DT     00F1 Rx 8  20 00 00 00 F0 00 00 40 
    959      8924.205 ER          Rx    04 01 02 00 00
    960      8925.572 DT     00F1 Rx 8  20 00 00 00 F0 00 00 40 
    961      8925.812 ER          Rx    04 01 02 00 00
    962      8927.180 DT     00F1 Rx 8  20 00 00 00 F0 00 00 40 
    963      8927.419 ER          Rx    04 01 02 00 00
    964      8928.787 DT     00F1 Rx 8  20 00 00 00 F0 00 00 40 
    965      8929.026 ER          Rx    04 01 02 00 00
    966      8930.374 DT     00F1 Rx 8  20 00 00 00 F0 00 00 40 
    967      8930.613 ER          Rx    04 01 02 00 00
    968      8931.981 DT     00F1 Rx 8  20 00 00 00 F0 00 00 40 
    969      8932.220 ER          Rx    04 01 02 00 00
    970      8933.588 DT     00F1 Rx 8  20 00 00 00 F0 00 00 40 
    971      8933.827 ER          Rx    04 01 02 00 00
    972      8935.195 DT     00F1 Rx 8  20 00 00 00 F0 00 00 40 
    973      8935.435 ER          Rx    04 01 02 00 00
    974      8936.062 ER          Rx    04 01 0A 00 00
    975     10374.434 ER          Rx    02 01 1B 00 00
    976     10375.652 ER          Rx    02 01 1B 00 00
    977     10376.869 ER          Rx    02 01 1B 00 00
    978     10378.087 ER          Rx    02 01 1B 00 00
    979     10379.305 ER          Rx    02 01 1B 00 00
    980     10380.523 ER          Rx    02 01 1B 00 00
    981     10381.741 ER          Rx    02 01 1B 00 00
    982     10382.958 ER          Rx    02 01 1B 00 00
    983     10384.176 ER          Rx    02 01 1B 00 00
    984     10385.394 ER          Rx    02 01 1B 00 00
    985     10386.612 ER          Rx    02 01 1B 00 00
    986     10387.830 ER          Rx    02 01 1B 00 00
    987     10389.047 ER          Rx    02 01 1B 00 00
    988     10390.265 ER          Rx    02 01 1B 00 00
    989     10391.483 ER          Rx    02 01 1B 00 00
    990     10392.701 ER          Rx    02 01 1B 00 00
    991     10394.057 DT     00F1 Rx 8  55 55 40 00 DF 02 C4 03 
    992     10394.899 DT     0010 Rx 4  48 26 40 00 
    993     10396.156 DT     00F1 Rx 8  1D 00 00 09 0C 80 00 00 
    994     10397.343 DT     00F1 Rx 8  6D 00 F2 06 91 00 00 4D 
    995     10398.501 DT     00F1 Rx 8  D9 44 00 81 BB B0 82 49 
    996     10399.648 DT     00F1 Rx 8  9B 34 83 4A 40 44 02 44 
    997     10400.825 DT     00F1 Rx 8  6D 00 4A 03 91 00 00 4D 
    998     10401.973 DT     00F1 Rx 8  D9 44 40 81 BB 70 DB 41 
    999     10403.120 DT     00F1 Rx 8  9B 14 4C 40 40 44 02 44 
   1000     10404.297 DT     00F1 Rx 8  6D 00 3E 03 1D 00 93 00 
   1001     10405.474 DT     00F1 Rx 8  6D 00 9C 06 91 00 00 FD 
   1002     10406.632 DT     00F1 Rx 8  D9 FF 18 82 14 FF 3B 00 
   1003     10407.848 DT     00F1 Rx 8  01 00 7E 06 00 00 6D 00 
   1004     10409.036 DT     00F1 Rx 8  75 06 1D 00 84 00 91 00 
   1005     10410.214 DT     00F1 Rx 8  00 FD D9 FF 18 82 14 FF 
   1006     10411.401 DT     00F1 Rx 8  3B 10 01 00 7E 08 91 00 
   1007     10412.578 DT     00F1 Rx 8  00 FD D9 FF 19 82 14 FF 
   1008     10413.755 DT     00F1 Rx 8  F6 F2 3C 74 91 00 00 FD 
   1009     10414.912 DT     00F1 Rx 8  D9 FF 18 82 14 FF 3B 00 
   1010     10416.110 DT     00F1 Rx 8  02 00 5F 0F 18 80 91 00 
   1011     10417.287 DT     00F1 Rx 8  00 FD D9 FF 19 82 14 FF 
   1012     10418.465 DT     00F1 Rx 8  EE 11 91 00 00 FD D9 FF 
   1013     10419.642 DT     00F1 Rx 8  1A 82 14 FF F6 FB 91 00 
   1014     10420.840 DT     00F1 Rx 8  00 FD D9 FF 1B 82 14 FF 
   1015     10422.017 DT     00F1 Rx 8  F6 F5 00 00 6D 00 C4 05 
   1016     10423.214 DT     00F1 Rx 8  3C 55 91 00 00 FD D9 FF 
   1017     10424.411 DT     00F1 Rx 8  18 82 14 FF 3B 00 03 00 
   1018     10425.599 DT     00F1 Rx 8  7E 05 00 00 6D 00 8E 04 
   1019     10426.806 DT     00F1 Rx 8  3C 49 91 00 00 FD D9 FF 
   1020     10427.993 DT     00F1 Rx 8  18 82 14 FF 3B 00 04 00 
   1021     10429.190 DT     00F1 Rx 8  5F 0F 12 80 91 00 00 FD 
   1022     10430.357 DT     00F1 Rx 8  D9 FF 19 82 14 FF F6 FB 
   1023     10431.544 DT     00F1 Rx 8  91 00 00 FD D9 FF 1A 82 
   1024     10432.751 DT     00F1 Rx 8  14 FF F6 F5 00 00 6D 00 
   1025     10433.929 DT     00F1 Rx 8  27 06 3C 30 91 00 00 FD 
   1026     10435.086 DT     00F1 Rx 8  D9 FF 18 82 14 FF 3B 00 
   1027     10436.294 DT     00F1 Rx 8  05 00 7E 0B 91 00 00 FD 
   1028     10437.472 DT     00F1 Rx 8  D9 FF 19 82 14 FF F6 F5 
   1029     10438.689 DT     00F1 Rx 8  00 00 6D 00 C3 05 3C 1E 
   1030     10439.866 DT     00F1 Rx 8  91 00 00 FD D9 FF 18 82 
   1031     10441.064 DT     00F1 Rx 8  14 FF 3B 00 06 00 7E 0B 
   1032     10442.241 DT     00F1 Rx 8  91 00 00 FD D9 FF 19 82 
   1033     10443.448 DT     00F1 Rx 8  14 FF F6 F5 00 00 6D 00 
   1034     10444.636 DT     00F1 Rx 8  15 03 3C 0C 91 00 00 FD 
   1035     10445.793 DT     00F1 Rx 8  D9 FF 18 82 14 FF 3B 00 
   1036     10447.001 DT     00F1 Rx 8  07 00 7E 04 00 00 6D 00 
   1037     10448.168 DT     00F1 Rx 8  DB 03 DA 01 1D FF 6E FF 
   1038     10449.386 DT     00F1 Rx 8  00 00 00 00 02 44 DA 00 
   1039     10450.573 DT     00F1 Rx 8  02 FF BB 00 40 04 9B 00 
   1040     10451.770 DT     00F1 Rx 8  00 0F 60 0F 8F 54 20 00 
   1041     10452.948 DT     00F1 Rx 8  01 F0 00 F6 48 70 6F 30 
   1042     10454.136 DT     00F1 Rx 8  04 00 DA 01 02 FF 02 F2 
   1043     10455.333 DT     00F1 Rx 8  00 90 FF FF 02 44 DA 00 
   1044     10456.521 DT     00F1 Rx 8  02 FF BB 00 40 04 9B 00 
   1045     10457.718 DT     00F1 Rx 8  00 0F 60 0F 8F 54 20 00 
   1046     10458.915 DT     00F1 Rx 8  01 F0 00 F6 48 71 6F 81 
   1047     10460.093 DT     00F1 Rx 8  0D 80 BB 00 40 F4 9B 0F 
   1048     10461.300 DT     00F1 Rx 8  00 FF 60 FF 01 F0 00 F6 
   1049     10462.468 DT     00F1 Rx 8  DA 20 6C F7 DA 01 02 FF 
   1050     10463.654 DT     00F1 Rx 8  02 F2 00 90 02 44 40 44 
   1051     10464.841 DT     00F1 Rx 8  BB 00 40 F4 9B 0F 00 FF 
   1052     10466.029 DT     00F1 Rx 8  8F 54 20 00 42 0F 60 FF 
   1053     10467.206 DT     00F1 Rx 8  54 FF 8F 8F 1E F0 16 0F 
   1054     10468.394 DT     00F1 Rx 8  B4 4F DA 00 3C 12 10 4F 
   1055     10469.590 DT     00F1 Rx 8  BB 00 40 04 9B 00 00 0F 
   1056     10470.778 DT     00F1 Rx 8  60 02 8F 54 20 00 01 20 
   1057     10471.955 DT     00F1 Rx 8  00 26 10 22 09 20 50 08 
   1058     10473.114 DT     00F1 Rx 8  28 C0 C2 1F 37 0F 68 F0 
   1059     10474.321 DT     00F1 Rx 8  02 FF 09 40 C0 08 3F 0F 
   1060     10475.488 DT     00F1 Rx 8  EC FF 8F 40 20 F0 B4 4F 
   1061     10476.676 DT     00F1 Rx 8  BB 00 40 F4 9B 0F 00 FF 
   1062     10477.863 DT     00F1 Rx 8  60 FF 8F 54 20 F0 10 FF 
   1063     10479.020 DT     00F1 Rx 8  48 7F 2E B5 09 4F C0 08 
   1064     10480.207 DT     00F1 Rx 8  96 08 B4 4F BB 00 40 F4 
   1065     10481.384 DT     00F1 Rx 8  9B 0F 00 FF 60 FF 8F 54 
   1066     10482.592 DT     00F1 Rx 8  20 F0 10 FF 48 60 EF D0 
   1067     10483.779 DT     00F1 Rx 8  23 00 BB 00 40 04 9B 00 
   1068     10484.976 DT     00F1 Rx 8  00 0F 60 0F 10 FF 48 60 
   1069     10486.143 DT     00F1 Rx 8  BB F0 FF 1F 9B F1 FF 11 
   1070     10487.310 DT     00F1 Rx 8  26 10 89 40 02 09 BB 00 
   1071     10488.518 DT     00F1 Rx 8  40 04 9B 00 00 0F 60 0F 
   1072     10489.705 DT     00F1 Rx 8  10 FF 48 3F BB F0 FF 0F 
   1073     10490.892 DT     00F1 Rx 8  9B F0 FF 01 26 0F 89 4F 
   1074     10492.080 DT     00F1 Rx 8  06 09 09 4F C0 08 96 04 
   1075     10493.237 DT     00F1 Rx 8  B4 4F 3C 1D BB 00 40 F4 
   1076     10494.414 DT     00F1 Rx 8  9B 0F 00 FF 60 FF 8F 54 
   1077     10495.612 DT     00F1 Rx 8  20 F0 10 FF 48 60 8F E0 
   1078     10496.809 DT     00F1 Rx 8  1E 00 3B F0 7F 10 26 10 
   1079     10497.997 DT     00F1 Rx 8  89 40 02 09 BB 00 40 04 
   1080     10499.193 DT     00F1 Rx 8  9B 00 00 0F 60 0F 10 FF 
   1081     10500.360 DT     00F1 Rx 8  48 3F 8F EF 1E F0 26 1F 
   1082     10501.517 DT     00F1 Rx 8  89 4F 06 09 BB 00 40 F4 
   1083     10502.695 DT     00F1 Rx 8  9B 0F 00 FF 60 FF 8F 54 
   1084     10503.892 DT     00F1 Rx 8  20 F0 10 FF 48 2F 8F 0F 
   1085     10505.070 DT     00F1 Rx 8  1F F0 BB F0 FF 0F 26 0F 
   1086     10506.238 DT     00F1 Rx 8  AC 4A 00 90 85 FF 20 00 
   1087     10507.425 DT     00F1 Rx 8  BB E0 FF 0F 9B F0 FF 0F 
   1088     10508.613 DT     00F1 Rx 8  0F 0F 80 40 02 44 6D 00 
   1089     10509.789 DT     00F1 Rx 8  B1 06 BB 00 00 F4 9B 0F 
   1090     10510.997 DT     00F1 Rx 8  00 FF 60 FF DA 08 74 FF 
   1091     10512.164 DT     00F1 Rx 8  BB C0 00 F4 9B 0F 00 FF 
   1092     10513.362 DT     00F1 Rx 8  60 FF 3B F0 3F F4 74 FF 
   1093     10514.540 DT     00F1 Rx 8  85 FF 20 00 8F 1F 40 41 
   1094     10515.707 DT     00F1 Rx 8  02 44 6D 00 9B 06 BB 40 
   1095     10516.894 DT     00F1 Rx 8  1C F4 9B 0F 00 FF 60 FF 
   1096     10518.062 DT     00F1 Rx 8  54 FF 6F 8F FA FF BB 00 
   1097     10519.259 DT     00F1 Rx 8  20 F4 9B 0F 00 FF 60 FF 
   1098     10520.437 DT     00F1 Rx 8  DA 41 74 FF BB 80 20 F4 
   1099     10521.635 DT     00F1 Rx 8  9B 0F 00 FF 60 FF DA 00 
   1100     10522.792 DT     00F1 Rx 8  74 FF BB 40 21 04 9B 00 
   1101     10524.000 DT     00F1 Rx 8  00 0F 60 0F 7B 00 06 00 
   1102     10525.157 DT     00F1 Rx 8  74 F0 BB C0 20 04 9B 00 
   1103     10526.354 DT     00F1 Rx 8  00 0F 60 0F 74 FF 85 FF 
   1104     10527.552 DT     00F1 Rx 8  20 00 BB E0 FF 0F 9B F0 
   1105     10528.729 DT     00F1 Rx 8  FF 0F 0F 0F 80 40 02 44 
   1106     10529.906 DT     00F1 Rx 8  6D 00 6C 06 C5 FF C0 D0 
   1107     10531.124 DT     00F1 Rx 8  85 FF C0 D0 7B 00 00 01 
   1108     10532.311 DT     00F1 Rx 8  A6 0F 74 FF 85 FF 20 00 
   1109     10533.478 DT     00F1 Rx 8  8F 1F 40 41 02 44 6D 00 
   1110     10534.654 DT     00F1 Rx 8  5D 06 C5 FF DC C0 85 FF 
   1111     10535.831 DT     00F1 Rx 8  DC C0 BB F0 F0 0F 9B F0 
   1112     10537.009 DT     00F1 Rx 8  FF 0F 26 0F 96 20 74 FF 
   1113     10538.217 DT     00F1 Rx 8  85 FF 20 00 BB E0 FF 0F 
   1114     10539.384 DT     00F1 Rx 8  9B F0 FF 0F 0F 0F 80 40 
   1115     10540.541 DT     00F1 Rx 8  02 44 6D 00 47 06 C5 FF 
   1116     10541.749 DT     00F1 Rx 8  C0 D0 85 FF C0 D0 7B 00 
   1117     10542.967 DT     00F1 Rx 8  00 01 A6 0F 74 FF 85 FF 
   1118     10544.164 DT     00F1 Rx 8  20 00 8F 1F 40 41 02 44 
   1119     10545.341 DT     00F1 Rx 8  6D 00 38 06 C5 FF DC C0 
   1120     10546.518 DT     00F1 Rx 8  85 FF DC C0 BB F0 FF 00 
   1121     10547.685 DT     00F1 Rx 8  9B F0 FF 0F 26 0F BB 00 
   1122     10548.893 DT     00F1 Rx 8  00 09 A6 0F 74 FF BB 00 
   1123     10550.080 DT     00F1 Rx 8  21 F4 9B 0F 00 FF 60 FF 
   1124     10551.237 DT     00F1 Rx 8  3B B0 44 F3 74 FF BB 80 
   1125     10552.414 DT     00F1 Rx 8  21 F4 9B 0F 00 FF 60 FF 
   1126     10553.582 DT     00F1 Rx 8  DA 00 74 FF BB 00 30 F4 
   1127     10554.760 DT     00F1 Rx 8  9B 0F 00 FF 60 FF DA 41 
   1128     10555.897 DT     00F1 Rx 8  74 FF BB 40 1C F4 9B 0F 
   1129     10557.115 DT     00F1 Rx 8  00 FF 60 FF DA 02 9B 0F 
   1130     10558.272 DT     00F1 Rx 8  10 F0 74 FF BB 40 1C F4 
   1131     10559.449 DT     00F1 Rx 8  9B 0F 00 FF 60 FF 54 FF 
   1132     10560.607 DT     00F1 Rx 8  6F 8F FA FF BB 40 1C F4 
   1133     10561.784 DT     00F1 Rx 8  9B 0F 00 FF 60 FF DA 02 
   1134     10562.951 DT     00F1 Rx 8  9B 1F 10 F0 74 FF BB 40 
   1135     10564.138 DT     00F1 Rx 8  1C F4 9B 0F 00 FF 60 FF 
   1136     10565.316 DT     00F1 Rx 8  54 FF 6F 8F FA FF BB C0 
   1137     10566.503 DT     00F1 Rx 8  41 F4 9B 0F 00 FF 60 FF 
   1138     10567.670 DT     00F1 Rx 8  7B 00 08 F0 74 FF BB 00 
   1139     10568.856 DT     00F1 Rx 8  40 F4 9B 0F 00 FF 60 FF 
   1140     10570.054 DT     00F1 Rx 8  82 01 74 F1 BB 40 40 F4 
   1141     10571.211 DT     00F1 Rx 8  9B 0F 00 FF 60 FF 74 F1 
   1142     10572.369 DT     00F1 Rx 8  BB C0 40 F4 9B 0F 00 FF 
   1143     10573.576 DT     00F1 Rx 8  60 FF BB F0 FF FF 9B FF 
   1144     10574.753 DT     00F1 Rx 8  FF F1 74 FF BB 80 41 F4 
   1145     10575.931 DT     00F1 Rx 8  9B 0F 00 FF 60 FF 7B 40 
   1146     10577.119 DT     00F1 Rx 8  3C FC 74 FF BB 00 41 F4 
   1147     10578.276 DT     00F1 Rx 8  9B 0F 00 FF 60 FF 74 F1 
   1148     10579.453 DT     00F1 Rx 8  BB 40 41 F4 9B 0F 00 FF 
   1149     10580.610 DT     00F1 Rx 8  60 FF 74 F1 BB 80 40 F4 
   1150     10581.768 DT     00F1 Rx 8  9B 0F 00 FF 60 FF 74 F1 
   1151     10582.935 DT     00F1 Rx 8  BB C0 41 F4 9B 0F 00 FF 
   1152     10584.112 DT     00F1 Rx 8  60 FF 7B 00 02 F0 74 FF 
   1153     10585.309 DT     00F1 Rx 8  BB C0 43 04 9B 00 00 0F 
   1154     10586.466 DT     00F1 Rx 8  60 0F 7B 80 E8 00 74 F0 
   1155     10587.664 DT     00F1 Rx 8  BB 00 42 04 9B 00 00 0F 
   1156     10588.831 DT     00F1 Rx 8  60 0F 7B 00 80 00 74 F0 
   1157     10590.029 DT     00F1 Rx 8  BB 40 42 04 9B 00 00 0F 
   1158     10591.196 DT     00F1 Rx 8  60 0F 74 F1 BB C0 42 04 
   1159     10592.404 DT     00F1 Rx 8  9B 00 00 0F 60 0F BB F0 
   1160     10593.581 DT     00F1 Rx 8  FF 0F 9B F0 FF 01 74 F0 
   1161     10594.768 DT     00F1 Rx 8  BB 80 43 04 9B 00 00 0F 
   1162     10595.945 DT     00F1 Rx 8  60 0F 7B 00 04 0C 74 F0 
   1163     10597.143 DT     00F1 Rx 8  BB 00 43 04 9B 00 00 0F 
   1164     10598.291 DT     00F1 Rx 8  60 0F 74 F1 BB 40 43 04 
   1165     10599.478 DT     00F1 Rx 8  9B 00 00 0F 60 0F 74 F1 
   1166     10600.665 DT     00F1 Rx 8  BB 80 42 04 9B 00 00 0F 
   1167     10601.843 DT     00F1 Rx 8  60 0F 3B 00 10 00 74 F0 
   1168     10603.040 DT     00F1 Rx 8  BB C0 43 04 9B 00 00 0F 
   1169     10604.217 DT     00F1 Rx 8  60 0F 74 FF BB 00 20 F4 
   1170     10605.414 DT     00F1 Rx 8  9B 0F 00 FF 60 FF BB 00 
   1171     10606.622 DT     00F1 Rx 8  20 F4 9B 0F 00 FF 60 F2 
   1172     10607.809 DT     00F1 Rx 8  54 2F BB E0 FB 0F 9B F0 
   1173     10608.976 DT     00F1 Rx 8  FF 0F 26 0F 74 FF 00 90 
   1174     10610.134 DT     00F1 Rx 8  02 44 40 44 BB 00 40 F4 
   1175     10611.311 DT     00F1 Rx 8  9B 0F 00 FF 60 FF 8F 54 
   1176     10612.528 DT     00F1 Rx 8  20 F0 10 FF 7B 80 00 F0 
   1177     10613.696 DT     00F1 Rx 8  6C F7 DA 00 3C 14 BB 00 
   1178     10614.902 DT     00F1 Rx 8  40 04 9B 00 00 0F 60 0F 
   1179     10616.089 DT     00F1 Rx 8  8F 54 20 00 01 F0 00 F6 
   1180     10617.267 DT     00F1 Rx 8  10 FF 14 40 89 F0 10 08 
   1181     10618.425 DT     00F1 Rx 8  40 44 B0 14 40 44 C2 1F 
   1182     10619.603 DT     00F1 Rx 8  37 0F 68 F0 02 FF BB 00 
   1183     10620.790 DT     00F1 Rx 8  40 04 9B 00 00 0F 8F 54 
   1184     10621.968 DT     00F1 Rx 8  20 10 42 10 60 0F 54 F0 
   1185     10623.165 DT     00F1 Rx 8  8F 80 1E 00 8F F0 00 01 
   1186     10624.353 DT     00F1 Rx 8  3F 0F DF FF BB 00 40 F4 
   1187     10625.530 DT     00F1 Rx 8  9B 0F 00 FF 60 FF 01 F1 
   1188     10626.687 DT     00F1 Rx 8  00 F6 DA 40 9B 0F 02 F0 
   1189     10627.854 DT     00F1 Rx 8  6C F7 00 90 02 44 BB 00 
   1190     10629.051 DT     00F1 Rx 8  40 F4 9B 0F 00 FF 60 FF 
   1191     10630.238 DT     00F1 Rx 8  8F 54 20 F0 10 FF DA 08 
   1192     10631.406 DT     00F1 Rx 8  6C F7 00 90 02 44 BB 00 
   1193     10632.593 DT     00F1 Rx 8  40 F4 9B 0F 00 FF 60 FF 
   1194     10633.771 DT     00F1 Rx 8  8F 54 20 F0 10 FF 7B 00 
   1195     10634.949 DT     00F1 Rx 8  02 F0 6C F7 00 90 FF FF 
   1196     10636.096 DT     00F1 Rx 8  02 44 BB 00 40 F4 9B 0F 
   1197     10637.314 DT     00F1 Rx 8  00 FF 60 FF 8F 54 20 F0 
   1198     10638.480 DT     00F1 Rx 8  10 FF 7B 00 70 F0 6C F7 
   1199     10639.677 DT     00F1 Rx 8  00 90 FF FF 40 44 02 44 
   1200     10640.865 DT     00F1 Rx 8  02 55 BB F0 FF FF 9B FF 
   1201     10642.052 DT     00F1 Rx 8  FF FF 02 FF 3C 0C 8F 8F 
   1202     10643.240 DT     00F1 Rx 8  1F 00 16 FF 60 4F 14 F1 
   1203     10644.407 DT     00F1 Rx 8  C6 1F 06 2F 10 4F 54 FF 
   1204     10645.564 DT     00F1 Rx 8  C6 0F C2 14 02 50 C2 F5 
   1205     10646.741 DT     00F1 Rx 8  02 55 DF 00 F2 FF BB F0 
   1206     10647.949 DT     00F1 Rx 8  FF 0F 9B F0 FF 0F C6 0F 
   1207     10649.146 DT     00F1 Rx 8  02 F2 00 90 40 4C 02 48 
   1208     10650.323 DT     00F1 Rx 8  82 09 3C 3C 02 9F 06 2F 
   1209     10651.500 DT     00F1 Rx 8  10 CF 3B 80 00 50 02 94 
   1210     10652.678 DT     00F1 Rx 8  02 55 6D 00 39 00 02 22 
   1211     10653.896 DT     00F1 Rx 8  8F 82 01 F0 74 FF DA 00 
   1212     10655.093 DT     00F1 Rx 8  3C 1A 02 90 06 20 01 C0 
   1213     10656.290 DT     00F1 Rx 8  00 F6 54 F0 7B 00 00 18 
   1214     10657.497 DT     00F1 Rx 8  26 10 76 03 02 80 3C 02 
   1215     10658.694 DT     00F1 Rx 8  82 00 02 91 06 21 01 C1 
   1216     10659.881 DT     00F1 Rx 8  00 F6 02 91 06 21 01 C1 
   1217     10661.029 DT     00F1 Rx 8  00 26 54 21 06 11 C6 10 
   1218     10662.186 DT     00F1 Rx 8  74 F0 C2 1F 02 FF BF 8F 
   1219     10663.353 DT     00F1 Rx 8  E6 FF 02 9F 06 2F 10 CF 
   1220     10664.511 DT     00F1 Rx 8  02 9F 06 2F 10 C2 54 24 
   1221     10665.698 DT     00F1 Rx 8  3B 00 02 50 02 44 02 55 
   1222     10666.866 DT     00F1 Rx 8  6D 00 0A 00 02 22 74 F2 
   1223     10668.023 DT     00F1 Rx 8  C2 19 DA FF 7F 9F C4 FF 
   1224     10669.221 DT     00F1 Rx 8  00 00 00 90 02 44 02 55 
   1225     10670.388 DT     00F1 Rx 8  82 02 DA 01 3C 0F 6F 04 
   1226     10671.565 DT     00F1 Rx 8  08 00 82 10 02 51 A2 F1 
   1227     10672.752 DT     00F1 Rx 8  0F 10 10 00 A6 02 02 44 
   1228     10673.909 DT     00F1 Rx 8  06 F4 02 44 C2 1F 37 0F 
   1229     10675.086 DT     00F1 Rx 8  68 F0 02 FF 8B 15 00 00 
   1230     10676.264 DT     00F1 Rx 8  3F 0F EF 7F 02 22 00 90 
   1231     10677.441 DT     00F1 Rx 8  6D 00 A6 04 6D 00 A0 06 
   1232     10678.628 DT     00F1 Rx 8  91 00 00 FD D9 FF 00 82 
   1233     10679.815 DT     00F1 Rx 8  91 00 00 4D D9 44 00 81 
   1234     10680.993 DT     00F1 Rx 8  91 00 00 2D 19 24 04 82 
   1235     10682.150 DT     00F1 Rx 8  91 00 00 2D 19 25 08 82 
   1236     10683.308 DT     00F1 Rx 8  40 44 02 44 02 55 6D FF 
   1237     10684.485 DT     00F1 Rx 8  6B FF 02 22 74 F2 91 00 
   1238     10685.662 DT     00F1 Rx 8  00 FD D9 FF 27 82 91 00 
   1239     10686.840 DT     00F1 Rx 8  00 2D 19 2F 00 82 34 FF 
   1240     10688.017 DT     00F1 Rx 8  91 00 00 FD D9 FF 26 82 
   1241     10689.195 DT     00F1 Rx 8  19 2F 00 82 06 8F 34 FF 
   1242     10690.372 DT     00F1 Rx 8  91 00 00 FD D9 FF 25 82 
   1243     10691.549 DT     00F1 Rx 8  19 2F 00 82 8F 0F 1F F0 
   1244     10692.747 DT     00F1 Rx 8  34 FF 91 00 00 FD D9 FF 
   1245     10693.934 DT     00F1 Rx 8  24 82 19 2F 00 82 8F 8F 
   1246     10695.121 DT     00F1 Rx 8  1E F0 34 FF 40 2F D9 FF 
   1247     10696.298 DT     00F1 Rx 8  00 82 91 00 00 4D D9 44 
   1248     10697.476 DT     00F1 Rx 8  40 81 91 00 00 2D 19 24 
   1249     10698.643 DT     00F1 Rx 8  04 82 91 00 00 2D 19 25 
   1250     10699.820 DT     00F1 Rx 8  08 82 40 44 02 44 02 55 
   1251     10700.968 DT     00F1 Rx 8  6D FF 32 FF 02 22 74 F2 
   1252     10702.145 DT     00F1 Rx 8  91 00 00 FD D9 FF 2B 82 
   1253     10703.312 DT     00F1 Rx 8  91 00 00 2D 19 2F 00 82 
   1254     10704.510 DT     00F1 Rx 8  34 FF 91 00 00 FD D9 FF 
   1255     10705.677 DT     00F1 Rx 8  2A 82 19 2F 00 82 06 8F 
   1256     10706.874 DT     00F1 Rx 8  34 FF 91 00 00 FD D9 FF 
   1257     10708.041 DT     00F1 Rx 8  29 82 19 2F 00 82 8F 0F 
   1258     10709.238 DT     00F1 Rx 8  1F F0 34 FF 91 00 00 FD 
   1259     10710.405 DT     00F1 Rx 8  D9 FF 28 82 19 2F 00 82 
   1260     10711.563 DT     00F1 Rx 8  8F 8F 1E F0 34 FF 6D 00 
   1261     10712.740 DT     00F1 Rx 8  A3 02 00 90 02 44 91 00 
   1262     10713.917 DT     00F1 Rx 8  00 FD D9 FF 00 82 9A 34 
   1263     10715.095 DT     00F1 Rx 8  91 00 00 2D D9 22 80 81 
   1264     10716.262 DT     00F1 Rx 8  10 22 14 2F 74 FF 91 00 
   1265     10717.460 DT     00F1 Rx 8  00 FD D9 FF 00 82 91 00 
   1266     10718.627 DT     00F1 Rx 8  00 4D 19 4F 00 82 8F 8F 
   1267     10719.825 DT     00F1 Rx 8  00 F0 74 FF 40 4F D9 FF 
   1268     10720.992 DT     00F1 Rx 8  00 82 19 4F 00 82 8B 24 
   1269     10722.180 DT     00F1 Rx 8  00 00 91 00 00 2D D9 22 
   1270     10723.368 DT     00F1 Rx 8  80 81 01 20 00 26 14 20 
   1271     10724.565 DT     00F1 Rx 8  A6 0F 74 FF 40 4F D9 FF 
   1272     10725.793 DT     00F1 Rx 8  00 82 19 4F 00 82 8F 8F 
   1273     10726.990 DT     00F1 Rx 8  00 F0 74 FF 40 4F D9 FF 
   1274     10728.158 DT     00F1 Rx 8  00 82 19 4F 00 82 8B 14 
   1275     10729.345 DT     00F1 Rx 8  00 00 91 00 00 2D D9 22 
   1276     10730.533 DT     00F1 Rx 8  80 81 01 20 00 26 14 20 
   1277     10731.730 DT     00F1 Rx 8  A6 0F 74 FF 40 4F D9 FF 
   1278     10732.926 DT     00F1 Rx 8  00 82 19 4F 00 82 8F 8F 
   1279     10734.124 DT     00F1 Rx 8  00 F0 74 FF 40 4F D9 FF 
   1280     10735.322 DT     00F1 Rx 8  00 82 19 4F 00 82 91 00 
   1281     10736.489 DT     00F1 Rx 8  00 2D D9 22 80 81 01 24 
   1282     10737.667 DT     00F1 Rx 8  00 26 14 20 A6 0F 74 FF 
   1283     10738.855 DT     00F1 Rx 8  00 90 FF FF 6D 00 D4 03 
   1284     10740.013 DT     00F1 Rx 8  6D 00 CE 05 6D 00 EE 05 
   1285     10741.190 DT     00F1 Rx 8  91 00 00 FD D9 FF 19 82 
   1286     10742.357 DT     00F1 Rx 8  14 FF 6E 16 DA 00 3C 0D 
   1287     10743.555 DT     00F1 Rx 8  91 00 00 FD D9 FF 80 81 
   1288     10744.731 DT     00F1 Rx 8  10 FF 91 00 00 2D D9 22 
   1289     10745.899 DT     00F1 Rx 8  19 82 14 20 34 F0 C2 1F 
   1290     10747.097 DT     00F1 Rx 8  91 00 00 FD 19 F0 08 82 
   1291     10748.274 DT     00F1 Rx 8  3F 0F F0 FF 3C 21 DA 00 
   1292     10749.482 DT     00F1 Rx 8  3C 19 6D 00 0F 02 82 00 
   1293     10750.688 DT     00F1 Rx 8  3C 11 12 01 91 00 00 FD 
   1294     10751.876 DT     00F1 Rx 8  D9 FF 80 81 01 F1 00 F6 
   1295     10753.034 DT     00F1 Rx 8  91 00 00 2D D9 22 18 82 
   1296     10754.201 DT     00F1 Rx 8  01 20 00 26 14 21 34 F1 
   1297     10755.348 DT     00F1 Rx 8  C2 10 BF 80 F0 FF 8B 8F 
   1298     10756.545 DT     00F1 Rx 8  00 F0 91 00 00 FD 19 F0 
   1299     10757.733 DT     00F1 Rx 8  08 82 3F 0F E4 FF DA 00 
   1300     10758.920 DT     00F1 Rx 8  3C 1E 02 F4 6D FF 64 FF 
   1301     10760.118 DT     00F1 Rx 8  91 00 00 FD 19 F0 04 82 
   1302     10761.295 DT     00F1 Rx 8  60 0F 91 00 00 2D 19 20 
   1303     10762.452 DT     00F1 Rx 8  00 82 74 F0 C2 4F 02 F4 
   1304     10763.640 DT     00F1 Rx 8  6D FF 56 FF 91 00 00 FD 
   1305     10764.836 DT     00F1 Rx 8  19 F0 04 82 C2 40 60 0F 
   1306     10766.014 DT     00F1 Rx 8  91 00 00 2D 19 20 00 82 
   1307     10767.181 DT     00F1 Rx 8  74 F0 C2 4F 91 00 00 FD 
   1308     10768.388 DT     00F1 Rx 8  19 F0 08 82 3F 0F DF FF 
   1309     10769.595 DT     00F1 Rx 8  00 00 6D 00 E1 01 00 90 
   1310     10770.783 DT     00F1 Rx 8  DA 00 02 FF 6D 00 68 03 
   1311     10771.960 DT     00F1 Rx 8  6D 00 62 05 91 00 00 FD 
   1312     10773.138 DT     00F1 Rx 8  D9 FF 1A 82 14 FF F6 F9 
   1313     10774.316 DT     00F1 Rx 8  91 00 00 FD D9 FF 1B 82 
   1314     10775.504 DT     00F1 Rx 8  14 FF F6 F3 1D 00 12 01 
   1315     10776.681 DT     00F1 Rx 8  91 00 00 FD D9 FF 19 82 
   1316     10777.879 DT     00F1 Rx 8  14 FF DF 0F 7C 80 3C 72 
   1317     10779.065 DT     00F1 Rx 8  91 00 00 FD D9 FF 00 82 
   1318     10780.232 DT     00F1 Rx 8  91 00 00 4D 19 4F 04 82 
   1319     10781.411 DT     00F1 Rx 8  60 F2 54 2F 74 FF 91 00 
   1320     10782.588 DT     00F1 Rx 8  00 FD D9 FF 24 82 91 00 
   1321     10783.776 DT     00F1 Rx 8  00 5D 19 5F 00 82 34 FF 
   1322     10784.953 DT     00F1 Rx 8  91 00 00 FD D9 FF 25 82 
   1323     10786.130 DT     00F1 Rx 8  19 5F 00 82 06 8F 34 FF 
   1324     10787.307 DT     00F1 Rx 8  91 00 00 FD D9 FF 26 82 
   1325     10788.484 DT     00F1 Rx 8  19 5F 00 82 8F 0F 1F F0 
   1326     10789.682 DT     00F1 Rx 8  34 FF 91 00 00 FD D9 FF 
   1327     10790.869 DT     00F1 Rx 8  27 82 19 5F 00 82 8F 8F 
   1328     10792.057 DT     00F1 Rx 8  1E F0 34 FF 40 4F D9 FF 
   1329     10793.214 DT     00F1 Rx 8  04 82 19 4F 04 82 C2 4F 
   1330     10794.401 DT     00F1 Rx 8  74 FF 40 5F D9 FF 00 82 
   1331     10795.579 DT     00F1 Rx 8  19 4F 04 82 60 F2 54 2F 
   1332     10796.776 DT     00F1 Rx 8  74 FF 91 00 00 FD D9 FF 
   1333     10797.963 DT     00F1 Rx 8  28 82 19 5F 00 82 34 FF 
   1334     10799.151 DT     00F1 Rx 8  91 00 00 FD D9 FF 29 82 
   1335     10800.328 DT     00F1 Rx 8  19 5F 00 82 06 8F 34 FF 
   1336     10801.506 DT     00F1 Rx 8  91 00 00 FD D9 FF 2A 82 
   1337     10802.683 DT     00F1 Rx 8  19 5F 00 82 8F 0F 1F F0 
   1338     10803.881 DT     00F1 Rx 8  34 FF 91 00 00 FD D9 FF 
   1339     10805.069 DT     00F1 Rx 8  2B 82 19 5F 00 82 8F 8F 
   1340     10806.257 DT     00F1 Rx 8  1E F0 34 FF 40 4F D9 FF 
   1341     10807.414 DT     00F1 Rx 8  04 82 19 4F 04 82 C2 4F 
   1342     10808.591 DT     00F1 Rx 8  74 FF 6D 00 5D 01 91 00 
   1343     10809.778 DT     00F1 Rx 8  00 FD D9 FF 08 82 91 00 
   1344     10810.936 DT     00F1 Rx 8  00 2D 19 2F 08 82 C2 FF 
   1345     10812.134 DT     00F1 Rx 8  74 FF 91 00 00 FD 19 FF 
   1346     10813.340 DT     00F1 Rx 8  08 82 FF 1F 8B FF 00 00 
   1347     10814.546 DT     00F1 Rx 8  00 90 91 00 00 FD D9 FF 
   1348     10815.734 DT     00F1 Rx 8  19 82 14 FF DF 1F 8E 80 
   1349     10816.921 DT     00F1 Rx 8  91 00 00 FD D9 FF 08 82 
   1350     10818.078 DT     00F1 Rx 8  91 00 00 2D 19 2F 08 82 
   1351     10819.275 DT     00F1 Rx 8  06 3F 74 FF 91 00 00 FD 
   1352     10820.453 DT     00F1 Rx 8  D9 FF 00 82 91 00 00 2D 
   1353     10821.631 DT     00F1 Rx 8  19 2F 04 82 60 F2 54 2F 
   1354     10822.828 DT     00F1 Rx 8  74 FF 91 00 00 FD D9 FF 
   1355     10824.005 DT     00F1 Rx 8  28 82 91 00 00 2D 19 2F 
   1356     10825.202 DT     00F1 Rx 8  00 82 34 FF 91 00 00 FD 
   1357     10826.360 DT     00F1 Rx 8  D9 FF 29 82 19 2F 00 82 
   1358     10827.547 DT     00F1 Rx 8  06 8F 34 FF 91 00 00 FD 
   1359     10828.714 DT     00F1 Rx 8  D9 FF 2A 82 19 2F 00 82 
   1360     10829.881 DT     00F1 Rx 8  8F 0F 1F F0 34 FF 91 00 
   1361     10831.048 DT     00F1 Rx 8  00 FD D9 FF 2B 82 19 2F 
   1362     10832.246 DT     00F1 Rx 8  00 82 8F 8F 1E F0 34 FF 
   1363     10833.443 DT     00F1 Rx 8  3C 24 91 00 00 FD 19 FF 
   1364     10834.640 DT     00F1 Rx 8  04 82 60 FF 14 FF 02 FF 
   1365     10835.828 DT     00F1 Rx 8  91 00 00 FD D9 FF 28 82 
   1366     10837.036 DT     00F1 Rx 8  14 F0 5F F0 03 00 3C 1B 
   1367     10838.243 DT     00F1 Rx 8  91 00 00 FD D9 FF 04 82 
   1368     10839.410 DT     00F1 Rx 8  91 00 00 2D 19 2F 04 82 
   1369     10840.587 DT     00F1 Rx 8  C2 1F 74 FF 91 00 00 FD 
   1370     10841.764 DT     00F1 Rx 8  D9 FF 08 82 91 00 00 2D 
   1371     10842.922 DT     00F1 Rx 8  19 2F 08 82 C2 FF 74 FF 
   1372     10844.120 DT     00F1 Rx 8  91 00 00 FD 19 FF 08 82 
   1373     10845.317 DT     00F1 Rx 8  FF 1F D9 FF 91 00 00 FD 
   1374     10846.485 DT     00F1 Rx 8  19 FF 08 82 EE 22 91 00 
   1375     10847.662 DT     00F1 Rx 8  00 FD D9 FF 24 82 91 00 
   1376     10848.810 DT     00F1 Rx 8  00 2D D9 22 18 82 14 2F 
   1377     10850.006 DT     00F1 Rx 8  34 FF 91 00 00 FD D9 FF 
   1378     10851.184 DT     00F1 Rx 8  25 82 91 00 00 2D D9 22 
   1379     10852.351 DT     00F1 Rx 8  19 82 14 2F 34 FF 91 00 
   1380     10853.538 DT     00F1 Rx 8  00 FD D9 FF 26 82 DA FA 
   1381     10854.736 DT     00F1 Rx 8  34 FF 91 00 00 FD D9 FF 
   1382     10855.893 DT     00F1 Rx 8  27 82 DA DE 34 FF 3C 03 
   1383     10857.070 DT     00F1 Rx 8  6D 00 64 04 6D 00 B8 00 
   1384     10858.267 DT     00F1 Rx 8  00 90 FF FF 6D 00 40 02 
   1385     10859.454 DT     00F1 Rx 8  91 00 00 FD D9 FF 00 82 
   1386     10860.622 DT     00F1 Rx 8  91 00 00 2D 19 2F 04 82 
   1387     10861.779 DT     00F1 Rx 8  60 F2 54 2F 74 FF 6D 00 
   1388     10862.966 DT     00F1 Rx 8  51 04 91 00 00 FD D9 FF 
   1389     10864.144 DT     00F1 Rx 8  28 82 91 00 00 2D 19 2F 
   1390     10865.341 DT     00F1 Rx 8  00 82 34 FF 91 00 00 FD 
   1391     10866.499 DT     00F1 Rx 8  D9 FF 29 82 19 2F 00 82 
   1392     10867.676 DT     00F1 Rx 8  06 8F 34 FF 91 00 00 FD 
   1393     10868.843 DT     00F1 Rx 8  D9 FF 2A 82 19 2F 00 82 
   1394     10870.010 DT     00F1 Rx 8  8F 0F 1F F0 34 FF 91 00 
   1395     10871.178 DT     00F1 Rx 8  00 FD D9 FF 2B 82 19 2F 
   1396     10872.374 DT     00F1 Rx 8  00 82 8F 8F 1E F0 34 FF 
   1397     10873.572 DT     00F1 Rx 8  6D 00 82 00 00 90 FF FF 
   1398     10874.769 DT     00F1 Rx 8  6D 00 0A 02 91 00 00 FD 
   1399     10875.946 DT     00F1 Rx 8  D9 FF 00 82 91 00 00 2D 
   1400     10877.124 DT     00F1 Rx 8  19 2F 04 82 60 F2 54 2F 
   1401     10878.311 DT     00F1 Rx 8  74 FF DA 01 91 00 00 FD 
   1402     10879.479 DT     00F1 Rx 8  D9 FF 1B 82 14 F0 0F 0F 
   1403     10880.696 DT     00F1 Rx 8  10 F0 02 FF 91 00 00 FD 
   1404     10881.844 DT     00F1 Rx 8  D9 FF 1A 82 14 F0 DF 10 
   1405     10883.050 DT     00F1 Rx 8  0C 80 91 00 00 FD D9 FF 
   1406     10884.257 DT     00F1 Rx 8  00 82 91 00 00 2D 19 20 
   1407     10885.465 DT     00F1 Rx 8  00 82 A6 0F 3C 16 91 00 
   1408     10886.632 DT     00F1 Rx 8  00 FD D9 FF 1A 82 14 F0 
   1409     10887.829 DT     00F1 Rx 8  DF 00 11 80 91 00 00 FD 
   1410     10889.006 DT     00F1 Rx 8  D9 FF 00 82 91 00 00 2D 
   1411     10890.194 DT     00F1 Rx 8  19 20 00 82 BB F0 FF 1F 
   1412     10891.371 DT     00F1 Rx 8  9B F1 FF 1F C6 1F 26 0F 
   1413     10892.569 DT     00F1 Rx 8  74 FF 91 00 00 FD 19 FF 
   1414     10893.767 DT     00F1 Rx 8  04 82 60 FF 91 00 00 2D 
   1415     10894.944 DT     00F1 Rx 8  19 2F 00 82 74 FF 6D 00 
   1416     10896.142 DT     00F1 Rx 8  E1 03 6D 00 35 00 00 90 
   1417     10897.319 DT     00F1 Rx 8  6D 00 DC 03 6D 00 30 00 
   1418     10898.516 DT     00F1 Rx 8  00 90 FF FF 6D 00 02 02 
   1419     10899.714 DT     00F1 Rx 8  91 00 00 FD 19 FF 04 82 
   1420     10900.901 DT     00F1 Rx 8  60 FF 91 00 00 2D 19 2F 
   1421     10902.089 DT     00F1 Rx 8  00 82 74 FF 6D 00 CA 03 
   1422     10903.285 DT     00F1 Rx 8  6D 00 1E 00 00 90 FF FF 
   1423     10904.503 DT     00F1 Rx 8  00 02 00 D0 00 12 00 D0 
   1424     10905.680 DT     00F1 Rx 8  82 04 02 44 6D FF F8 F9 
   1425     10906.878 DT     00F1 Rx 8  02 22 DF 02 FB 7F 82 04 
   1426     10908.046 DT     00F1 Rx 8  91 00 00 4D D9 44 0C 82 
   1427     10909.203 DT     00F1 Rx 8  02 44 40 44 6D FF 1C FA 
   1428     10910.371 DT     00F1 Rx 8  82 04 02 44 6D FF 44 FC 
   1429     10911.568 DT     00F1 Rx 8  00 90 FF FF 82 14 02 44 
   1430     10912.756 DT     00F1 Rx 8  6D FF F6 F9 02 22 DF 02 
   1431     10913.933 DT     00F1 Rx 8  FB 7F 82 14 91 00 00 4D 
   1432     10915.080 DT     00F1 Rx 8  D9 44 24 82 02 44 40 44 
   1433     10916.268 DT     00F1 Rx 8  6D FF F4 FB DA 00 3B 00 
   1434     10917.425 DT     00F1 Rx 8  71 02 3C 02 C2 1F 3F 0F 
   1435     10918.603 DT     00F1 Rx 8  FF FF 82 14 02 44 6D FF 
   1436     10919.779 DT     00F1 Rx 8  41 FC 82 14 02 44 6D FF 
   1437     10920.957 DT     00F1 Rx 8  DB F9 02 22 DF 02 FB 7F 
   1438     10922.164 DT     00F1 Rx 8  00 00 00 90 DA 01 02 F8 
   1439     10923.351 DT     00F1 Rx 8  6D FF C4 FF 91 00 00 FD 
   1440     10924.538 DT     00F1 Rx 8  D9 FF 18 82 14 FF DF 0F 
   1441     10925.725 DT     00F1 Rx 8  82 80 91 00 00 FD D9 FF 
   1442     10926.923 DT     00F1 Rx 8  19 82 14 FF DF 0F 7B 80 
   1443     10928.110 DT     00F1 Rx 8  91 00 00 FD D9 FF 1A 82 
   1444     10929.307 DT     00F1 Rx 8  14 FF EE 74 00 00 6D 00 
   1445     10930.455 DT     00F1 Rx 8  6D 03 BB 00 42 F4 9B 0F 
   1446     10931.662 DT     00F1 Rx 8  00 FF 60 FF 7B 00 80 F0 
   1447     10932.839 DT     00F1 Rx 8  74 FF 6D FF B9 FF 91 00 
   1448     10934.037 DT     00F1 Rx 8  00 FD D9 FF 1B 82 14 FF 
   1449     10935.204 DT     00F1 Rx 8  EE 61 DA 00 02 F8 91 00 
   1450     10936.382 DT     00F1 Rx 8  00 FD D9 FF 1C 82 14 FF 
   1451     10937.569 DT     00F1 Rx 8  02 F9 91 00 00 FD D9 FF 
   1452     10938.756 DT     00F1 Rx 8  1D 82 14 FF 8F 8F 00 F0 
   1453     10939.943 DT     00F1 Rx 8  A6 F9 91 00 00 FD D9 FF 
   1454     10941.121 DT     00F1 Rx 8  1E 82 14 FF 8F 0F 01 F0 
   1455     10942.308 DT     00F1 Rx 8  A6 F9 91 00 00 FD D9 FF 
   1456     10943.505 DT     00F1 Rx 8  1F 82 14 FF 8F 8F 01 F0 
   1457     10944.683 DT     00F1 Rx 8  A6 F9 85 FF 20 00 BB E0 
   1458     10945.840 DT     00F1 Rx 8  FF 0F 9B F0 FF 0F 0F 0F 
   1459     10947.007 DT     00F1 Rx 8  80 40 02 44 6D 00 E6 00 
   1460     10948.194 DT     00F1 Rx 8  C5 FF 00 10 85 FF 00 10 
   1461     10949.392 DT     00F1 Rx 8  82 00 37 0F 81 F2 74 FF 
   1462     10950.549 DT     00F1 Rx 8  C5 F2 03 10 14 2F 37 0F 
   1463     10951.747 DT     00F1 Rx 8  01 F0 34 2F 74 F9 85 FF 
   1464     10952.945 DT     00F1 Rx 8  20 00 8F 1F 40 41 02 44 
   1465     10954.123 DT     00F1 Rx 8  6D 00 D0 00 85 FF 00 10 
   1466     10955.299 DT     00F1 Rx 8  37 0F 61 F0 6E FC 85 FF 
   1467     10956.497 DT     00F1 Rx 8  20 00 BB E0 FF 0F 9B F0 
   1468     10957.675 DT     00F1 Rx 8  FF 0F 0F 0F 80 40 02 44 
   1469     10958.873 DT     00F1 Rx 8  6D 00 C0 00 C5 FF 00 10 
   1470     10960.050 DT     00F1 Rx 8  85 FF 00 10 82 00 37 0F 
   1471     10961.228 DT     00F1 Rx 8  81 F2 74 FF 85 FF 20 00 
   1472     10962.395 DT     00F1 Rx 8  8F 1F 40 41 02 44 6D 00 
   1473     10963.562 DT     00F1 Rx 8  B1 00 DA 00 CD CF E2 0F 
   1474     10964.760 DT     00F1 Rx 8  0D 00 C0 04 85 FF 20 00 
   1475     10965.947 DT     00F1 Rx 8  BB E0 FF 0F 9B F0 FF 0F 
   1476     10967.135 DT     00F1 Rx 8  0F 0F 80 40 02 44 6D 00 
   1477     10968.312 DT     00F1 Rx 8  A1 00 BB 80 01 F2 9B 0F 
   1478     10969.519 DT     00F1 Rx 8  80 FF 60 FF BB 00 00 F8 
   1479     10970.686 DT     00F1 Rx 8  74 FF BB C0 01 02 9B 00 
   1480     10971.874 DT     00F1 Rx 8  80 0F 60 0F 74 FF 85 FF 
   1481     10973.072 DT     00F1 Rx 8  20 00 8F 1F 40 41 02 44 
   1482     10974.249 DT     00F1 Rx 8  6D 00 8C 00 85 FF 20 00 
   1483     10975.436 DT     00F1 Rx 8  BB E0 FF 0F 9B F0 FF 0F 
   1484     10976.624 DT     00F1 Rx 8  0F 0F 80 40 02 44 6D 00 
   1485     10977.781 DT     00F1 Rx 8  81 00 BB 00 F0 F3 9B 4F 
   1486     10978.988 DT     00F1 Rx 8  00 FF 60 FF DA 00 74 FF 
   1487     10980.145 DT     00F1 Rx 8  BB 00 F1 F3 9B 4F 00 FF 
   1488     10981.342 DT     00F1 Rx 8  60 FF 3B 00 20 F0 74 FF 
   1489     10982.520 DT     00F1 Rx 8  85 FF 20 00 8F 1F 40 41 
   1490     10983.678 DT     00F1 Rx 8  02 44 6D 00 6B 00 BB 00 
   1491     10984.835 DT     00F1 Rx 8  F2 F3 9B 4F 00 FF 60 FF 
   1492     10986.002 DT     00F1 Rx 8  DA 00 74 FF BB 40 F2 03 
   1493     10987.170 DT     00F1 Rx 8  9B 40 00 0F 60 0F 74 FF 
   1494     10988.337 DT     00F1 Rx 8  BB C0 FE F3 9B 4F 00 FF 
   1495     10989.523 DT     00F1 Rx 8  60 FF 3B 00 00 F1 74 FF 
   1496     10990.701 DT     00F1 Rx 8  BB 80 FE 03 9B 40 00 0F 
   1497     10991.878 DT     00F1 Rx 8  60 0F 74 FF BB 40 FE 03 
   1498     10993.045 DT     00F1 Rx 8  9B 40 00 0F 60 0F 74 FF 
   1499     10994.232 DT     00F1 Rx 8  BB 00 FE 03 9B 40 00 0F 
   1500     10995.399 DT     00F1 Rx 8  60 0F 74 FF BB C0 FD 03 
   1501     10996.567 DT     00F1 Rx 8  9B 40 00 0F 60 0F 74 FF 
   1502     10997.774 DT     00F1 Rx 8  85 FF 20 00 BB E0 FF 0F 
   1503     10998.942 DT     00F1 Rx 8  9B F0 FF 0F 0F 0F 80 40 
   1504     11000.120 DT     00F1 Rx 8  02 44 6D 00 33 00 C5 FF 
   1505     11001.337 DT     00F1 Rx 8  18 10 BB F0 FF FF 9B FF 
   1506     11002.544 DT     00F1 Rx 8  0F F0 74 FF C5 FF 08 10 
   1507     11003.711 DT     00F1 Rx 8  BB 30 40 F9 74 FF 85 FF 
   1508     11004.908 DT     00F1 Rx 8  20 00 8F 1F 40 41 02 44 
   1509     11006.096 DT     00F1 Rx 8  6D 00 20 00 85 FF 20 00 
   1510     11007.283 DT     00F1 Rx 8  BB E0 FF 0F 9B F0 FF 0F 
   1511     11008.470 DT     00F1 Rx 8  0F 0F 80 40 02 44 6D 00 
   1512     11009.658 DT     00F1 Rx 8  15 00 C5 FF C0 03 DA 00 
   1513     11010.825 DT     00F1 Rx 8  74 FF 85 FF 20 00 8F 1F 
   1514     11012.023 DT     00F1 Rx 8  40 41 02 44 6D 00 0A 00 
   1515     11013.211 DT     00F1 Rx 8  F6 84 00 00 6D FF 4C F9 
   1516     11014.418 DT     00F1 Rx 8  0D 00 40 03 00 00 00 90 
   1517     11015.596 DT     00F1 Rx 8  02 44 85 FF 20 00 02 FF 
   1518     11016.773 DT     00F1 Rx 8  96 F0 85 F0 24 00 37 00 
   1519     11017.960 DT     00F1 Rx 8  E1 01 76 03 96 08 3C 06 
   1520     11019.118 DT     00F1 Rx 8  BB 70 FF 0F 9B F0 FF 0F 
   1521     11020.315 DT     00F1 Rx 8  26 0F 85 F0 24 00 37 00 
   1522     11021.472 DT     00F1 Rx 8  61 01 76 03 96 04 3C 06 
   1523     11022.630 DT     00F1 Rx 8  BB B0 FF 0F 9B F0 FF 0F 
   1524     11023.807 DT     00F1 Rx 8  26 0F BB D0 FF 0F 9B F0 
   1525     11024.983 DT     00F1 Rx 8  FF 0F 26 0F C5 FF 20 00 
   1526     11026.121 DT     00F1 Rx 8  74 FF 8F 24 4F 41 BB 30 
   1527     11027.327 DT     00F1 Rx 8  FF FF 9B FF FF FF 26 F4 
   1528     11028.505 DT     00F1 Rx 8  74 F4 00 90 91 00 00 FD 
   1529     11029.682 DT     00F1 Rx 8  D9 FF 04 82 91 00 00 2D 
   1530     11030.830 DT     00F1 Rx 8  D9 22 1C 82 14 2F 74 FF 
   1531     11032.038 DT     00F1 Rx 8  91 00 00 FD D9 FF 04 82 
   1532     11033.205 DT     00F1 Rx 8  91 00 00 2D 19 2F 04 82 
